ozeni,ScopeView,2013
4,4A,0D
1,Vmeas2.a,,,V,2.5172710593324155E-4,-15399.65625,0.0,-2147483648,2147483647,1.0,1.0,S
2,Vmeas2.b,,,V,2.5091119459830225E-4,-9.25,0.0,-2147483648,2147483647,1.0,1.0,S
3,Imeas1.a,,,A,1.8701615545069217E-6,811.925537109375,0.0,-2147483648,2147483647,1.0,1.0,S
4,Imeas1.b,,,A,1.248043815849087E-6,-540.2630615234375,0.0,-2147483648,2147483647,1.0,1.0,S
60.0
1
999.9999999999998,1001
27/04/2026,19:45:17.027394
27/04/2026,19:45:17.027394
ASCII
1.0
0,-4h
0,3
1,1199,692458329,-1448781014,12285511,-1023598753,
2,2199,1127814827,-1385752987,299214964,-946515524,
3,3199,1413365125,-1128094969,483145914,-675699231,
4,4199,1509004408,-711994064,538245781,-249185079,
5,5199,1401300597,-195890600,456775847,273124178,
6,6199,1105380190,347730319,250178464,817871747,
7,7199,662804379,842518706,-52530444,1308549471,
8,8199,135731699,1218983077,-408836284,1676243154,
9,9199,-401812143,1424250049,-768697005,1869311213,
10,10199,-874330629,1429490449,-1081571207,1860637972,
11,11199,-1215460087,1233968458,-1303516595,1651441450,
12,12199,-1377289724,865144366,-1403361680,1271102685,
13,13199,-1337091058,374818495,-1367083494,773039160,
14,14199,-1100510085,-168144308,-1199777150,227202386,
15,15199,-700773696,-687486576,-924940426,-289746504,
16,16199,-194023727,-1110268193,-581173223,-705203509,
17,17199,348568286,-1377110861,-216756656,-960818963,
18,18199,850796897,-1450537114,117128031,-1020692349,
19,19199,1242125620,-1320234538,373587743,-876414805,
20,20199,1467593492,-1004503869,516603475,-548249583,
21,21199,1495534092,-547688422,526089086,-82286538,
22,22199,1322023526,-13946548,400712360,456031281,
23,23199,971430571,521759241,158082085,991098673,
24,24199,492995087,984190656,-167725068,1447767046,
25,25199,-46088112,1308400670,-530950410,1761898587,
26,26199,-570106339,1448854746,-880580055,1889374545,
27,27199,-1005462837,1385826719,-1167509508,1812291316,
28,28199,-1291013134,1128168700,-1351440458,1541475023,
29,29199,-1386652418,712067796,-1406540325,1114960871,
30,30199,-1278948606,195964332,-1325070391,592651614,
31,31199,-983028200,-347656588,-1118473008,47904044,
32,32199,-540452388,-842444975,-815764100,-442773679,
33,33199,-13379708,-1218909346,-459458260,-810467362,
34,34199,524164133,-1424176318,-99597539,-1003535421,
35,35199,996682619,-1429416718,213276663,-994862180,
36,36199,1337812077,-1233894727,435222051,-785665658,
37,37199,1499641715,-865070634,535067136,-405326893,
38,38199,1459443049,-374744763,498788950,92736632,
39,39199,1222862076,168218039,331482606,638573406,
40,40199,823125686,687560308,56645882,1155522296,
41,41199,316375717,1110341925,-287121321,1570979301,
42,42199,-226216296,1377184592,-651537888,1826594755,
43,43199,-728444906,1450610845,-985422575,1886468141,
44,44199,-1119773629,1320308269,-1241882287,1742190597,
45,45199,-1345241502,1004577600,-1384898019,1414025375,
46,46199,-1373182101,547762153,-1394383630,948062330,
47,47199,-1199671536,14020279,-1269006904,409744511,
48,48199,-849078580,-521685509,-1026376629,-125322882,
49,49199,-370643097,-984116924,-700569476,-581991254,
50,50199,168440102,-1308326938,-337344135,-896122795,
51,51199,692458329,-1448781014,12285511,-1023598753,
52,52199,1127814827,-1385752987,299214964,-946515524,
53,53199,1413365125,-1128094969,483145914,-675699231,
54,54199,1509004408,-711994064,538245781,-249185079,
55,55199,1401300597,-195890600,456775847,273124178,
56,56199,1105380190,347730319,250178464,817871747,
57,57199,662804379,842518706,-52530444,1308549471,
58,58199,135731699,1218983077,-408836284,1676243154,
59,59199,-401812143,1424250049,-768697005,1869311213,
60,60199,-874330629,1429490449,-1081571207,1860637972,
61,61199,-1215460087,1233968458,-1303516595,1651441450,
62,62199,-1377289724,865144366,-1403361680,1271102685,
63,63199,-1337091058,374818495,-1367083494,773039160,
64,64199,-1100510085,-168144308,-1199777150,227202386,
65,65199,-700773696,-687486576,-924940426,-289746504,
66,66199,-194023727,-1110268193,-581173223,-705203509,
67,67199,348568286,-1377110861,-216756656,-960818963,
68,68199,850796897,-1450537114,117128031,-1020692349,
69,69199,1242125620,-1320234538,373587743,-876414805,
70,70199,1467593492,-1004503869,516603475,-548249583,
71,71199,1495534092,-547688422,526089086,-82286538,
72,72199,1322023526,-13946548,400712360,456031281,
73,73199,971430571,521759241,158082085,991098673,
74,74199,492995087,984190656,-167725068,1447767046,
75,75199,-46088112,1308400670,-530950410,1761898587,
76,76199,-570106339,1448854746,-880580055,1889374545,
77,77199,-1005462837,1385826719,-1167509508,1812291316,
78,78199,-1291013134,1128168700,-1351440458,1541475023,
79,79199,-1386652418,712067796,-1406540325,1114960871,
80,80199,-1278948606,195964332,-1325070391,592651614,
81,81199,-983028200,-347656588,-1118473008,47904044,
82,82199,-540452388,-842444975,-815764100,-442773679,
83,83199,-13379708,-1218909346,-459458260,-810467362,
84,84199,524164133,-1424176318,-99597539,-1003535421,
85,85199,996682619,-1429416718,213276663,-994862180,
86,86199,1337812077,-1233894727,435222051,-785665658,
87,87199,1499641715,-865070634,535067136,-405326893,
88,88199,1459443049,-374744763,498788950,92736632,
89,89199,1222862076,168218039,331482606,638573406,
90,90199,823125686,687560308,56645882,1155522296,
91,91199,316375717,1110341925,-287121321,1570979301,
92,92199,-226216296,1377184592,-651537888,1826594755,
93,93199,-728444906,1450610845,-985422575,1886468141,
94,94199,-1119773629,1320308269,-1241882287,1742190597,
95,95199,-1345241502,1004577600,-1384898019,1414025375,
96,96199,-1373182101,547762153,-1394383630,948062330,
97,97199,-1199671536,14020279,-1269006904,409744511,
98,98199,-849078580,-521685509,-1026376629,-125322882,
99,99199,-370643097,-984116924,-700569476,-581991254,
100,100199,168440102,-1308326938,-337344135,-896122795,
101,101199,692458329,-1448781014,12285511,-1023598753,
102,102199,1127814827,-1385752987,299214964,-946515524,
103,103199,1413365125,-1128094969,483145914,-675699231,
104,104199,1509004408,-711994064,538245781,-249185079,
105,105199,1401300597,-195890600,456775847,273124178,
106,106199,1105380190,347730319,250178464,817871747,
107,107199,662804379,842518706,-52530444,1308549471,
108,108199,135731699,1218983077,-408836284,1676243154,
109,109199,-401812143,1424250049,-768697005,1869311213,
110,110199,-874330629,1429490449,-1081571207,1860637972,
111,111199,-1215460087,1233968458,-1303516595,1651441450,
112,112199,-1377289724,865144366,-1403361680,1271102685,
113,113199,-1337091058,374818495,-1367083494,773039160,
114,114199,-1100510085,-168144308,-1199777150,227202386,
115,115199,-700773696,-687486576,-924940426,-289746504,
116,116199,-194023727,-1110268193,-581173223,-705203509,
117,117199,348568286,-1377110861,-216756656,-960818963,
118,118199,850796897,-1450537114,117128031,-1020692349,
119,119199,1242125620,-1320234538,373587743,-876414805,
120,120199,1467593492,-1004503869,516603475,-548249583,
121,121199,1495534092,-547688422,526089086,-82286538,
122,122199,1322023526,-13946548,400712360,456031281,
123,123199,971430571,521759241,158082085,991098673,
124,124199,492995087,984190656,-167725068,1447767046,
125,125199,-46088112,1308400670,-530950410,1761898587,
126,126199,-570106339,1448854746,-880580055,1889374545,
127,127199,-1005462837,1385826719,-1167509508,1812291316,
128,128199,-1291013134,1128168700,-1351440458,1541475023,
129,129199,-1386652418,712067796,-1406540325,1114960871,
130,130199,-1278948606,195964332,-1325070391,592651614,
131,131199,-983028200,-347656588,-1118473008,47904044,
132,132199,-540452388,-842444975,-815764100,-442773679,
133,133199,-13379708,-1218909346,-459458260,-810467362,
134,134199,524164133,-1424176318,-99597539,-1003535421,
135,135199,996682619,-1429416718,213276663,-994862180,
136,136199,1337812077,-1233894727,435222051,-785665658,
137,137199,1499641715,-865070634,535067136,-405326893,
138,138199,1459443049,-374744763,498788950,92736632,
139,139199,1222862076,168218039,331482606,638573406,
140,140199,823125686,687560308,56645882,1155522296,
141,141199,316375717,1110341925,-287121321,1570979301,
142,142199,-226216296,1377184592,-651537888,1826594755,
143,143199,-728444906,1450610845,-985422575,1886468141,
144,144199,-1119773629,1320308269,-1241882287,1742190597,
145,145199,-1345241502,1004577600,-1384898019,1414025375,
146,146199,-1373182101,547762153,-1394383630,948062330,
147,147199,-1199671536,14020279,-1269006904,409744511,
148,148199,-849078580,-521685509,-1026376629,-125322882,
149,149199,-370643097,-984116924,-700569476,-581991254,
150,150199,168440102,-1308326938,-337344135,-896122795,
151,151199,692458329,-1448781014,12285511,-1023598753,
152,152199,1127814827,-1385752987,299214964,-946515524,
153,153199,1413365125,-1128094969,483145914,-675699231,
154,154199,1509004408,-711994064,538245781,-249185079,
155,155199,1401300597,-195890600,456775847,273124178,
156,156199,1105380190,347730319,250178464,817871747,
157,157199,662804379,842518706,-52530444,1308549471,
158,158199,135731699,1218983077,-408836284,1676243154,
159,159199,-401812143,1424250049,-768697005,1869311213,
160,160199,-874330629,1429490449,-1081571207,1860637972,
161,161199,-1215460087,1233968458,-1303516595,1651441450,
162,162199,-1377289724,865144366,-1403361680,1271102685,
163,163199,-1337091058,374818495,-1367083494,773039160,
164,164199,-1100510085,-168144308,-1199777150,227202386,
165,165199,-700773696,-687486576,-924940426,-289746504,
166,166199,-194023727,-1110268193,-581173223,-705203509,
167,167199,348568286,-1377110861,-216756656,-960818963,
168,168199,850796897,-1450537114,117128031,-1020692349,
169,169199,1242125620,-1320234538,373587743,-876414805,
170,170199,1467593492,-1004503869,516603475,-548249583,
171,171199,1495534092,-547688422,526089086,-82286538,
172,172199,1322023526,-13946548,400712360,456031281,
173,173199,971430571,521759241,158082085,991098673,
174,174199,492995087,984190656,-167725068,1447767046,
175,175199,-46088112,1308400670,-530950410,1761898587,
176,176199,-570106339,1448854746,-880580055,1889374545,
177,177199,-1005462837,1385826719,-1167509508,1812291316,
178,178199,-1291013134,1128168700,-1351440458,1541475023,
179,179199,-1386652418,712067796,-1406540325,1114960871,
180,180199,-1278948606,195964332,-1325070391,592651614,
181,181199,-983028200,-347656588,-1118473008,47904044,
182,182199,-540452388,-842444975,-815764100,-442773679,
183,183199,-13379708,-1218909346,-459458260,-810467362,
184,184199,524164133,-1424176318,-99597539,-1003535421,
185,185199,996682619,-1429416718,213276663,-994862180,
186,186199,1337812077,-1233894727,435222051,-785665658,
187,187199,1499641715,-865070634,535067136,-405326893,
188,188199,1459443049,-374744763,498788950,92736632,
189,189199,1222862076,168218039,331482606,638573406,
190,190199,823125686,687560308,56645882,1155522296,
191,191199,316375717,1110341925,-287121321,1570979301,
192,192199,-226216296,1377184592,-651537888,1826594755,
193,193199,-728444906,1450610845,-985422575,1886468141,
194,194199,-1119773629,1320308269,-1241882287,1742190597,
195,195199,-1345241502,1004577600,-1384898019,1414025375,
196,196199,-1373182101,547762153,-1394383630,948062330,
197,197199,-1199671536,14020279,-1269006904,409744511,
198,198199,-849078580,-521685509,-1026376629,-125322882,
199,199199,-370643097,-984116924,-700569476,-581991254,
200,200199,168440102,-1308326938,-337344135,-896122795,
201,201199,215135798,-969839400,121135573,-1186734716,
202,202199,10680767,-264859957,770451957,-1652755323,
203,203199,564457954,-276521920,1397455358,-2045879526,
204,204199,821470993,-22526521,1792707208,-2128912006,
205,205199,444049661,764402858,2072284388,-2147483648,
206,206199,747596971,706822788,2147483647,-2025047119,
207,207199,775533225,729482573,1879417162,-1586355316,
208,208199,146420434,1208221924,1473345464,-1144077530,
209,209199,220994247,799329558,947948921,-702914477,
210,210199,141136400,410727178,242249801,-122941763,
211,211199,-532892863,549386234,-381749156,270242165,
212,212199,-429566187,-85517013,-863693250,462351883,
213,213199,-342579907,-622942575,-1276372461,637003566,
214,214199,-805428322,-464216004,-1404171648,533379743,
215,215199,-476492376,-912525858,-1245491927,190490515,
216,216199,-110767273,-1193746932,-968265834,-125252850,
217,217199,-348426454,-677750126,-459549009,-597128713,
218,218199,115197053,-712617978,203748887,-1150632515,
219,219199,578419191,-654561705,778342239,-1482985736,
220,220199,323395720,143302382,1329115857,-1765718628,
221,221199,647108624,303509743,1783920472,-1967004724,
222,222199,940883851,368519733,1924861514,-1827787442,
223,223199,449945802,1044906423,1871005612,-1575621331,
224,224199,489669437,987351697,1645702210,-1269488734,
225,225199,566065225,694226324,1123340060,-716812105,
226,226199,-102077539,979484683,508860904,-192517588,
227,227199,-194199062,572099574,-85367492,190734036,
228,228199,-110490482,-56183084,-735634310,618637447,
229,229199,-686088957,9124973,-1226599033,845294815,
230,230199,-637187290,-447854825,-1453255927,784727569,
231,231199,-308032233,-1024657662,-1545508504,687712146,
232,232199,-617571864,-764987602,-1374364718,394080304,
233,233199,-347645846,-883657826,-917988926,-123553071,
234,234199,202703699,-1101823846,-403454915,-548292619,
235,235199,38605894,-468281873,204613814,-981888361,
236,236199,325251587,-217974702,876049190,-1446251295,
237,237199,836981030,-200260906,1352990878,-1630989033,
238,238199,543639899,543889082,1667524147,-1658537027,
239,239199,592381453,800637043,1839756745,-1621405481,
240,240199,866524432,644003313,1681914798,-1279733673,
241,241199,332761580,1093980060,1306320836,-816603625,
242,242199,131775250,1018142658,838692505,-406390178,
243,243199,256785191,462167720,181808285,137450699,
244,244199,-336471357,534415736,-491029204,617107391,
245,245199,-542542263,199344901,-1004135055,843489401,
246,246199,-293710052,-535096193,-1447102483,1027024476,
247,247199,-679309666,-507914358,-1685971229,1034435341,
248,248199,-670059507,-701274074,-1598169134,731314708,
249,249199,-155771971,-1199829139,-1355786765,399699874,
250,250199,-286015335,-852433631,-930586735,-7225174,
251,251199,-117485703,-636109522,-285973209,-576739188,
252,252199,508564093,-764498821,330217166,-993071781,
253,253199,408279309,-119861156,884224584,-1276758509,
254,254199,468014725,332217049,1401436204,-1542600514,
255,255199,931253444,275599625,1654893376,-1522072099,
256,256199,622874047,831919089,1652109238,-1282744439,
257,257199,402789143,1103443568,1503032096,-1022350608,
258,258199,621111784,731912778,1077920380,-551532260,
259,259199,127773241,892905246,469959086,13363002,
260,260199,-249072086,802285784,-120142058,420078393,
261,261199,-72346497,87280810,-756123837,831213892,
262,262199,-491478905,-23415601,-1324785933,1153286522,
263,263199,-748579123,-215641597,-1625600860,1160314464,
264,264199,-360606620,-910516806,-1758340530,1064121495,
265,265199,-507241697,-881563708,-1690119825,856765696,
266,266199,-530692067,-772437885,-1305146452,379507282,
267,267199,79109835,-1106797593,-794396852,-95387020,
268,268199,115132565,-712560811,-224829376,-508381919,
269,269199,146386668,-221082594,453101065,-995591055,
270,270199,732365385,-266942055,1012772840,-1291697122,
271,271199,677340333,273213448,1370959120,-1348238536,
272,272199,498496612,812225618,1610513750,-1356760466,
273,273199,838891209,654649323,1572367266,-1128067710,
274,274199,549639172,927303995,1248034099,-673565325,
275,275199,115339778,1146454677,819229259,-261148919,
276,276199,265676981,610494508,227076271,229693907,
277,277199,-105305986,482858743,-468129641,764305057,
278,278199,-567804305,402584294,-1030096123,1059919656,
279,279199,-340584535,-337412394,-1492269884,1243405777,
280,280199,-520017809,-565358332,-1821462662,1336441265,
281,281199,-770057119,-561202728,-1830948860,1115416222,
282,282199,-295458783,-1088176338,-1624702447,769221736,
283,283199,-203160264,-1028612996,-1271931574,406842259,
284,284199,-262109828,-635468732,-680388379,-133311946,
285,285199,336518407,-767106816,-31155756,-628611869,
286,286199,496077294,-389400254,536027884,-936752296,
287,287199,371126321,267063581,1084052611,-1227986089,
288,288199,816487608,270171659,1445609438,-1325992980,
289,289199,788527642,603854023,1513377021,-1132321144,
290,290199,401527670,1110564489,1420499851,-888013523,
291,291199,579867529,846082654,1097520176,-503749963,
292,292199,352026427,797082000,525649344,62692642,
293,293199,-205644260,926103122,-72502947,518555347,
294,294199,-115666474,312946629,-687389453,911362758,
295,295199,-299307197,-44665548,-1304119191,1292999453,
296,296199,-751790686,-75504039,-1694737339,1398066807,
297,297199,-485363838,-702568855,-1870598311,1311084004,
298,298199,-405221309,-967025158,-1885350050,1161691374,
299,299199,-607762817,-746253696,-1597074643,761281013,
300,300199,-119171494,-1019793516,-1104148609,252817069,
301,301199,167625635,-922212677,-560658207,-165152009,
302,302199,64207721,-318712520,94923205,-640481323,
303,303199,547689858,-259758099,721107435,-1032303000,
304,304199,772051404,27248706,1139017625,-1149356593,
305,305199,496245166,712102918,1425277936,-1178036436,
306,306199,734709689,719621888,1498764574,-1052985464,
307,307199,724173167,780970909,1252612058,-647072400,
308,308199,196936045,1157528316,853742278,-215591442,
309,309199,212082144,808316428,325794882,229384035,
310,310199,88237490,463916845,-358838860,777748948,
311,311199,-484234888,500503993,-975140769,1159384199,
312,312199,-434709033,-80463790,-1460368095,1356464984,
313,313199,-396931423,-568387603,-1852804216,1500798182,
314,314199,-758738935,-511036323,-1972400334,1384874189,
315,315199,-477754097,-911181881,-1817713143,1047951366,
316,316199,-166304116,-1137987039,-1521132907,703152154,
317,317199,-304007351,-722472685,-1003697011,218234885,
318,318199,117588566,-715073279,-344977586,-328319907,
319,319199,521950116,-597776051,248094245,-688379035,
320,320199,365591247,101039927,808055634,-984958889,
321,321199,653155165,297421216,1257689353,-1178520103,
322,322199,883529702,425942565,1416222276,-1065614212,
323,323199,489584462,1005061150,1372103871,-827962319,
324,324199,499347577,977794593,1141140551,-513369999,
325,325199,508283748,752309125,635391062,14305102,
326,326199,-65072343,942245661,31111044,523313587,
327,327199,-181213103,558960961,-569162925,915720652,
328,328199,-168648250,2175466,-1203712827,1320105153,
329,329199,-651708782,-25259063,-1684020231,1530736244,
330,330199,-620784855,-464231573,-1917136632,1479786393,
331,331199,-366354040,-966243569,-1994634011,1360675479,
332,332199,-586140009,-796626411,-1812329197,1050391659,
333,333199,-328065274,-903256580,-1362685034,542861207,
334,334199,144575966,-1043423453,-834385818,97439768,
335,335199,67171021,-496905701,-214749213,-353523949,
336,336199,347839571,-240691841,449720205,-807426764,
337,337199,779085311,-142258344,939482672,-1011339920,
338,338199,569182161,518284312,1266019443,-1056865560,
339,339199,617941622,775060265,1431096727,-1009030642,
340,340199,809209016,701542284,1285073299,-685097923,
341,341199,355200437,1071447686,921873299,-240551304,
342,342199,160011456,989720002,446991158,180567246,
343,343199,200167223,518954931,-199036287,708175176,
344,344199,-317109120,515089862,-859111570,1168687137,
345,345199,-511644468,168388262,-1379556893,1406023693,
346,346199,-349418196,-479242548,-1812668223,1574774302,
347,347199,-663215290,-524145917,-2038411562,1562556354,
348,348199,-636779917,-734704291,-1957918563,1270446385,
349,349199,-210287929,-1145008822,-1706666691,925509409,
350,350199,-273043636,-865372160,-1268067958,498427700,
