Simulink,Paulo,1999
6,6A,0D
1,Va,A,BarraEntrada,V,1,0,0,-631078.031952,616987.966178,1,1,P
2,Vb,B,BarraEntrada,V,1,0,0,-566563.878582,586701.944138,1,1,P
3,Vc,C,BarraEntrada,V,1,0,0,-520348.882904,426745.557192,1,1,P
4,Ia,A,LinhaEntrada,A,1,0,0,-3579.340326,6442.024524,1,1,P
5,Ib,B,LinhaEntrada,A,1,0,0,-4856.282242,3586.733763,1,1,P
6,Ic,C,LinhaEntrada,A,1,0,0,-5146.066984,3582.320014,1,1,P
60
1
1000,2001
01/01/2026,00:00:00.000000
01/01/2026,00:00:00.000000
ASCII
1
1,0,26113.779209,-326505.997079,300392.217729,184.248315,-1677.766797,1493.518482
2,1000,157517.458425,-361863.125777,204345.667506,845.304051,-1838.226657,992.922605
3,2000,266795.597991,-346410.019314,79614.421517,1387.657763,-1740.527893,352.870130
4,3000,338612.059258,-282340.738252,-56271.320901,1735.117774,-1398.295206,-336.822568
5,4000,362881.062077,-178569.518142,-184311.543799,1838.842536,-859.636923,-979.205613
6,5000,336173.745446,-49704.455467,-286469.289885,1684.273744,-200.307777,-1483.965967
7,6000,262242.517693,86116.373623,-348358.891239,1293.163112,487.093962,-1780.257074
8,7000,151489.058047,209819.980513,-361309.038617,720.444864,1106.145254,-1826.590117
9,8000,19469.222328,304065.205573,-323534.428004,46.513465,1569.908003,-1616.421468
10,9000,-115290.205036,355647.251698,-240357.046728,-633.991765,1813.148602,-1179.156837
11,10000,-233870.784982,357256.942048,-123386.157275,-1225.458886,1801.665716,-576.206831
12,11000,-319601.487459,308667.470281,10934.016952,-1644.796523,1537.159381,107.637142
13,12000,-360432.300317,216725.597576,143706.702597,-1833.139356,1056.844975,776.294381
14,13000,-350640.223411,94375.846425,256264.376835,-1764.063717,428.101950,1335.961767
15,14000,-291613.988567,-41217.973321,332831.961767,-1447.247736,-260.837111,1708.084847
16,15000,-191636.992800,-171060.105153,362697.097912,-927.154348,-913.163965,1840.318313
17,16000,-64733.891678,-276883.179573,341617.071298,-276.843050,-1437.171592,1714.014642
18,17000,71267.552924,-343797.742708,272530.189864,412.316291,-1759.292636,1346.976345
19,18000,197251.743184,-362405.077264,165153.334177,1043.538418,-1834.382325,790.843907
20,19000,295523.940821,-330134.983214,34611.042566,1528.207138,-1651.885816,123.678678
21,20000,352296.445771,-251523.948968,-100772.496624,1798.256353,-1237.345363,-560.910990
22,21000,359599.712337,-137569.221341,-222030.490897,1815.724289,-648.961732,-1166.762558
23,22000,316393.967248,-4270.883705,-312123.083452,1578.144681,30.541639,-1608.686319
24,23000,228741.542258,129623.614757,-358365.156958,1118.915348,705.691782,-1824.607130
25,24000,108964.269167,245282.713910,-354246.983125,502.554245,1281.740915,-1784.295160
26,25000,-26105.722278,326493.883177,-300388.161004,-184.396770,1677.838643,-1493.441872
27,26000,-157507.777964,361877.679417,-204369.901585,-845.482624,1838.298123,-992.815500
28,27000,-266798.991836,346441.254436,-79642.262763,-1387.838446,1740.512700,-352.674254
29,28000,-338623.263709,282325.654209,56297.609303,-1735.262748,1398.256543,337.006205
30,29000,-362880.229952,178543.780154,184336.449619,-1838.970549,859.675127,979.295422
31,30000,-336164.998042,49708.951646,286456.046290,-1684.426928,200.390727,1484.036200
32,31000,-262243.203864,-86091.041959,348334.245743,-1293.334620,-487.080853,1780.415472
33,32000,-151498.046627,-209816.229132,361314.275728,-720.590698,-1106.188317,1826.779015
34,33000,-19470.918980,-304093.489698,323564.408747,-46.629606,-1569.901371,1616.530976
35,34000,115299.215671,-355652.180463,240352.964905,633.864282,-1813.073715,1179.209432
36,35000,233873.552832,-357236.154645,123362.601946,1225.305200,-1801.622709,576.317508
37,36000,319592.076195,-308653.320419,-10938.755615,1644.651914,-1537.193447,-107.458467
38,37000,360425.369991,-216743.870793,-143681.499030,1833.027069,-1056.865122,-776.161947
39,38000,350646.885304,-94394.798748,-256252.086428,1763.954807,-428.047026,-1335.907781
40,39000,291622.764467,41234.118179,-332856.882583,1447.113407,260.899027,-1708.012434
41,40000,191632.620045,171079.187533,-362711.807555,927.015581,913.152372,-1840.167953
42,41000,64724.165929,276875.496440,-341599.662405,276.732933,1437.134884,-1713.867817
43,42000,-71267.245796,343774.627287,-272507.381611,-412.410679,1759.321268,-1346.910590
44,43000,-197243.562840,362408.138680,-165164.575993,-1043.653137,1834.449574,-790.796436
45,44000,-295523.068700,330158.307386,-34635.238849,-1528.338193,1651.900177,-123.561984
46,45000,-352304.333529,251525.970118,100778.363233,-1798.367502,1237.306887,561.060615
47,46000,-359602.134328,137548.929474,222053.204693,-1815.809898,648.962430,1166.847467
48,47000,-316387.301556,4261.886551,312125.414901,-1578.239028,-30.480759,1608.719787
49,48000,-228738.351370,-129604.331500,358342.682827,-1119.032914,-705.654857,1824.687770
50,49000,-108971.356933,-245270.371379,354241.728320,-502.665591,-1281.768492,1784.434083
51,50000,26100.034272,-326509.149596,300409.115395,184.312874,-1677.860301,1493.547426
52,51000,157513.124867,-361892.929288,204379.804559,845.403238,-1838.254893,992.851655
53,52000,266805.938023,-346430.915437,79624.977573,1387.737310,-1740.460350,352.723040
54,53000,338619.755515,-282307.027617,-56312.727738,1735.155737,-1398.265097,-336.890640
55,54000,362871.760216,-178550.381019,-184321.379039,1838.886720,-859.708238,-979.178482
56,55000,336165.330069,-49727.942626,-286437.387322,1684.357596,-200.371331,-1483.986264
57,56000,262250.668104,86092.411858,-348343.079906,1293.249281,487.137235,-1780.386516
58,57000,151499.294925,209835.191147,-361334.486076,720.490374,1106.201741,-1826.692115
59,58000,19464.074220,304097.394348,-323561.468627,46.544620,1569.868299,-1616.412918
60,59000,-115302.239447,355634.110480,-240331.871152,-633.927503,1813.070251,-1179.142748
61,60000,-233868.102026,357228.531722,-123360.429860,-1225.374864,1801.671628,-576.296764
62,61000,-319588.705216,308668.437903,10920.267140,-1644.741644,1537.226134,107.515510
63,62000,-360430.584445,216755.432406,143675.151878,-1833.112924,1056.842108,776.270816
64,63000,-350651.813129,94382.954698,256268.858290,-1764.017398,428.026006,1335.991392
65,64000,-291618.904050,-41248.343568,332867.247528,-1447.171104,-260.865910,1708.037013
66,65000,-191626.853776,-171070.783679,362697.637435,-927.091737,-913.107832,1840.199569
67,66000,-64726.912624,-276859.943820,341586.856483,-276.815689,-1437.140758,1713.956446
68,67000,71260.274789,-343778.621862,272518.347166,412.346729,-1759.351126,1347.004397
69,68000,197243.791088,-362424.527226,165180.736282,1043.602573,-1834.436510,790.833937
70,69000,295529.554000,-330158.273792,34628.719964,1528.274961,-1651.853587,123.578626
71,70000,352305.671139,-251509.856172,-100795.814800,1798.290632,-1237.293888,-560.996744
72,71000,359596.124684,-137545.044583,-222051.079958,1815.744567,-648.990865,-1166.753702
73,72000,316384.261636,-4276.399006,-312107.862524,1578.192308,30.474602,-1608.666909
74,73000,228742.873501,129596.706961,-358339.580417,1118.981754,705.694231,-1824.675985
75,74000,108974.844066,245282.813631,-354257.657721,502.597220,1281.797099,-1784.394319
76,75000,-26103.972670,326519.617768,-300415.645179,-184.379133,1677.841676,-1493.462543
77,76000,-157517.596085,361883.509256,-204365.913301,-845.450036,1838.234702,-992.784666
78,77000,-266803.216126,346418.508893,-79615.292933,-1387.779077,1740.485664,-352.706587
79,78000,-338614.919963,282313.040505,56301.879283,-1735.213061,1398.302877,336.910183
80,79000,-362873.640298,178564.080626,184309.559517,-1838.950832,859.704532,979.246300
81,80000,-336171.046908,49725.362230,286445.684559,-1684.406432,200.344920,1484.061512
82,81000,-262250.624185,-86106.273519,348356.897635,-1293.285939,-487.129135,1780.415074
83,82000,-151493.853853,-209836.071068,361329.924919,-720.537014,-1106.163125,1826.700138
84,83000,-19462.794157,-304084.056680,323546.850901,-46.603648,-1569.856019,1616.459667
85,84000,115297.129243,-355629.867559,240332.738431,633.877046,-1813.094398,1179.217352
86,85000,233865.243043,-357240.554284,123375.311394,1225.340353,-1801.679415,576.339062
87,86000,319592.535508,-308675.478248,-10917.057085,1644.704334,-1537.194603,-107.509731
88,87000,360433.955202,-216745.489258,-143688.465778,1833.060943,-1056.816985,-776.243958
89,88000,350648.756901,-94373.538628,-256275.218141,1763.966130,-428.041009,-1335.925121
90,89000,291614.821925,41241.044398,-332855.866238,1447.136009,260.847060,-1707.983069
91,90000,191628.724344,171059.807013,-362688.531332,927.061632,913.126903,-1840.188535
92,91000,64731.098292,276864.376201,-341595.474536,276.772624,1437.172795,-1713.945418
93,92000,-71261.437031,343790.370596,-272528.933666,-412.396443,1759.349204,-1346.952761
94,93000,-197248.484680,362423.180317,-165174.695780,-1043.639939,1834.413336,-790.773397
95,94000,-295529.763974,330146.513806,-34616.750000,-1528.301378,1651.858073,-123.556695
96,95000,-352301.204279,251508.314494,100792.889614,-1798.324900,1237.325754,560.999145
97,96000,-359594.883686,137556.160068,222038.723471,-1815.789976,649.002422,1166.787553
98,97000,-316388.505154,4280.643083,312107.861970,-1578.231444,-30.494952,1608.726396
99,98000,-228745.438758,-129606.462018,358351.900731,-1119.007211,-705.702873,1824.710083
100,99000,-108971.644644,-245289.376386,354261.021048,-502.624192,-1281.771926,1784.396118
101,100000,26107.084835,-326511.683479,300404.598726,184.339677,-1677.819696,1493.480019
102,101000,157515.179729,-361875.112967,204359.933371,845.410239,-1838.246596,992.836357
103,102000,266799.526376,-346424.128462,79624.602249,1387.752644,-1740.502998,352.750354
104,103000,338616.211353,-282322.596251,-56293.614929,1735.191500,-1398.288693,-336.902807
105,104000,362877.305380,-178560.986316,-184316.318905,1838.918586,-859.677403,-979.241182
106,105000,336170.435715,-49715.259533,-286455.176062,1684.367855,-200.345446,-1484.022408
107,106000,262246.720326,86105.778079,-348352.498341,1293.257270,487.109002,-1780.366271
108,107000,151493.402615,209826.149743,-361319.552355,720.518073,1106.164946,-1826.683018
109,108000,19466.433929,304082.108078,-323548.542067,46.578587,1569.882268,-1616.460854
110,109000,-115295.901748,355639.061307,-240343.159677,-633.912022,1813.105170,-1179.193148
111,110000,-233868.685176,357244.740152,-123376.055131,-1225.370817,1801.662416,-576.291599
112,111000,-319594.813217,308667.555636,10927.257410,-1644.723079,1537.185662,107.537417
113,112000,-360431.337286,216739.476577,143691.860544,-1833.080249,1056.836976,776.243274
114,113000,-350645.976615,94379.793894,256266.182586,-1763.996037,428.060205,1335.935831
115,114000,-291616.733311,-41233.605180,332850.338408,-1447.167018,-260.856365,1708.023383
116,115000,-191631.995326,-171064.044087,362696.039391,-927.081632,-913.142607,1840.224238
117,116000,-64730.206701,-276872.674863,341602.881604,-276.787929,-1437.162436,1713.950365
118,117000,71264.650870,-343788.289007,272523.638237,412.372407,-1759.326268,1346.953861
119,118000,197248.251068,-362414.566866,165166.315944,1043.609979,-1834.412791,790.802812
120,119000,295526.483548,-330146.377618,34619.894240,1528.279290,-1651.875436,123.596146
121,120000,352300.569040,-251516.651307,-100783.917563,1798.311385,-1237.325832,-560.985554
122,121000,359597.852956,-137558.343866,-222039.508942,1815.771754,-648.980868,-1166.790886
123,122000,316389.733037,-4273.054924,-312116.678008,1578.204491,30.504923,-1608.709414
124,123000,228742.685084,129610.472117,-358353.157156,1118.983419,705.688789,-1824.672208
125,124000,108969.618959,245282.991296,-354252.610274,502.610407,1281.763068,-1784.373475
126,125000,-26104.996065,326506.211863,-300401.215878,-184.353340,1677.835482,-1493.482142
127,126000,-157512.738441,361880.002328,-204367.264018,-845.432880,1838.263310,-992.830431
128,127000,-266801.013746,346430.685579,-79629.671997,-1387.776896,1740.495846,-352.718950
129,128000,-338619.059642,282319.462640,56299.596830,-1735.206703,1398.274630,336.932073
130,129000,-362876.699329,178553.825111,184322.874061,-1838.929322,859.684794,979.244528
131,130000,-336167.642244,49716.545693,286451.096432,-1684.385673,200.364799,1484.020874
132,131000,-262246.708743,-86098.463068,348345.171745,-1293.280564,-487.107670,1780.388234
133,132000,-151496.172992,-209825.572316,361321.745306,-720.535180,-1106.179811,1826.714991
134,133000,-19467.180036,-304089.077953,323556.258051,-46.588181,-1569.883664,1616.471844
135,134000,115298.336044,-355641.344780,240343.008852,633.898878,-1813.087522,1179.188644
136,135000,233869.901605,-357238.511631,123368.610182,1225.350053,-1801.653253,576.303200
137,136000,319592.626155,-308663.779189,-10928.846793,1644.704438,-1537.197236,-107.507202
138,137000,360429.523425,-216744.597406,-143684.925854,1833.070112,-1056.845493,-776.224618
139,138000,350647.606761,-94384.725653,-256262.880973,1763.986497,-428.047826,-1335.938671
140,139000,291618.862281,41237.385333,-332856.247528,1447.149905,260.870879,-1708.020784
141,140000,191630.870237,171069.793763,-362700.663976,927.062602,913.137221,-1840.199823
142,141000,64727.759743,276870.420101,-341598.179885,276.776318,1437.149969,-1713.926287
143,142000,-71264.262740,343782.132702,-272517.870062,-412.379824,1759.331368,-1346.951544
144,143000,-197245.851548,362415.249214,-165169.397810,-1043.623104,1834.429082,-790.805978
145,144000,-295526.318197,330152.558662,-34626.240634,-1528.297428,1651.877323,-123.579895
146,145000,-352302.904552,251517.530835,100785.373548,-1798.324712,1237.313187,561.011525
147,146000,-359598.645081,137552.546088,222046.098847,-1815.778525,648.978599,1166.799926
148,147000,-316387.730331,4270.764707,312116.965521,-1578.213872,-30.490522,1608.704393
149,148000,-228741.504532,-129605.385794,358346.890281,-1118.999403,-705.680425,1824.679828
150,149000,-108971.352484,-245279.491162,354250.843666,-502.625063,-1281.772501,1784.397564
151,150000,26103.366225,-326510.288762,300406.922619,184.345872,-1677.843495,1493.497623
152,151000,157513.988000,-361884.412614,204370.424746,845.426329,-1838.253681,992.827352
153,152000,266802.868565,-346427.798640,79624.930238,1387.763988,-1740.483279,352.719290
154,153000,338618.239042,-282314.445982,-56303.792887,1735.191728,-1398.278578,-336.913150
155,154000,362874.613792,-178555.391264,-184319.222371,1838.920409,-859.695749,-979.224660
156,155000,336167.857313,-49721.815418,-286446.041775,1684.380648,-200.361449,-1484.019198
157,156000,262248.746186,86098.692407,-348347.438527,1293.270967,487.121347,-1780.392313
158,157000,151496.434856,209830.773837,-361327.208690,720.521035,1106.182064,-1826.703098
159,158000,19465.223498,304090.150453,-323555.374012,46.577734,1569.872978,-1616.450711
160,159000,-115299.127385,355636.546198,-240337.418930,-633.903624,1813.084716,-1179.181092
161,160000,-233868.254617,357236.280546,-123368.026083,-1225.356653,1801.664962,-576.308309
162,161000,-319591.507433,308667.907121,10923.600140,-1644.716728,1537.204819,107.511909
163,162000,-360430.896446,216747.802289,143683.093993,-1833.081680,1056.837869,776.243811
164,163000,-350649.068908,94381.505990,256267.562784,-1763.992017,428.040414,1335.951602
165,164000,-291617.917757,-41241.299439,332859.217111,-1447.154304,-260.863460,1708.017764
166,165000,-191629.253535,-171067.622640,362696.876151,-927.072305,-913.126372,1840.198677
167,166000,-64728.332717,-276866.065186,341594.397945,-276.788131,-1437.152762,1713.940892
168,167000,71262.491908,-343783.164772,272520.672964,412.372943,-1759.340922,1346.967979
169,168000,197245.928545,-362419.742157,165173.813757,1043.619784,-1834.427056,790.807272
170,169000,295528.032665,-330152.659176,34624.626679,1528.290470,-1651.865873,123.575404
171,170000,352303.227307,-251513.171761,-100790.055376,1798.313666,-1237.310720,-561.002946
172,171000,359597.019717,-137551.363852,-222045.655718,1815.770286,-648.987574,-1166.782711
173,172000,316386.968375,-4274.716513,-312112.251760,1578.210574,30.487428,-1608.698001
174,173000,228742.852636,129603.257826,-358346.110416,1118.994846,705.689905,-1824.684751
175,174000,108972.389947,245282.819611,-354255.209577,502.615628,1281.779334,-1784.394961
176,175000,-26104.451177,326513.193332,-300408.742236,-184.355042,1677.837389,-1493.482347
177,176000,-157515.291938,361881.894799,-204366.602993,-845.430431,1838.246918,-992.816487
178,177000,-266802.163524,346424.348210,-79622.184849,-1387.766852,1740.488930,-352.722078
179,178000,-338616.831035,282316.046809,56300.784053,-1735.198990,1398.287916,336.911075
180,179000,-362874.992437,178559.152949,184315.839331,-1838.929748,859.693874,979.235873
181,180000,-336169.358707,49721.192019,286448.166569,-1684.385996,200.353174,1484.032821
182,181000,-262248.776072,-86102.507042,348351.283048,-1293.273086,-487.120309,1780.393395
183,182000,-151495.001100,-209831.106830,361326.107928,-720.526025,-1106.172508,1826.698533
184,183000,-19464.863458,-304086.512319,323551.375839,-46.586370,-1569.870411,1616.456781
185,184000,115297.788436,-355635.317629,240337.529310,633.897086,-1813.092208,1179.195122
186,185000,233867.537007,-357239.518648,123371.981796,1225.354382,-1801.668163,576.313780
187,186000,319592.602226,-308669.903330,-10922.698724,1644.713661,-1537.197181,-107.516481
188,187000,360431.842077,-216745.137402,-143686.704511,1833.074448,-1056.831750,-776.242698
189,188000,350648.216620,-94378.896009,-256269.320476,1763.984718,-428.045256,-1335.939461
190,189000,291616.764280,41239.353019,-332856.117214,1447.151234,260.857359,-1708.008592
191,190000,191629.772135,171064.599442,-362694.371553,927.070528,913.130617,-1840.201144
192,191000,64729.555291,276867.214646,-341596.769978,276.782726,1437.160774,-1713.943500
193,192000,-71262.722795,343786.398269,-272523.675573,-412.380339,1759.339765,-1346.959426
194,193000,-197247.200102,362419.427170,-165172.227213,-1043.623973,1834.419934,-790.795961
195,194000,-295528.141054,330149.434234,-34621.293348,-1528.291758,1651.866187,-123.574430
196,195000,-352302.033146,251512.682617,100789.350360,-1798.317197,1237.318669,560.998528
197,196000,-359596.639945,137554.387259,222042.252539,-1815.777040,648.990150,1166.786890
198,197000,-316388.063319,4275.944324,312112.118892,-1578.215790,-30.493644,1608.709434
199,198000,-228743.519283,-129605.897227,358349.416465,-1118.996393,-705.693083,1824.689476
200,199000,-108971.509383,-245284.667065,354256.176468,-502.617618,-1281.773212,1784.390830
201,200000,26105.302230,-326511.076000,300405.773851,184.349510,-1677.831940,1493.482429
202,201000,157514.629106,-361879.566993,204364.938018,845.424598,-1838.250715,992.826117
203,202000,266801.151628,-346425.832310,79624.680845,1387.764533,-1740.494381,352.729848
204,203000,338617.204494,-282318.681140,-56298.523182,1735.197971,-1398.284784,-336.913187
205,204000,362876.048864,-178558.357761,-184317.690946,1838.925755,-859.687021,-979.238733
206,205000,336169.237412,-49718.425497,-286450.811796,1684.380127,-200.353778,-1484.026348
207,206000,262247.701214,86102.420722,-348350.121871,1293.269777,487.114214,-1780.383991
208,207000,151494.839008,209828.392346,-361323.231353,720.525304,1106.172304,-1826.697607
209,208000,19465.855074,304085.925681,-323551.780816,46.583918,1569.877002,-1616.460919
210,209000,-115297.403065,355637.818804,-240340.415855,-633.902370,1813.094727,-1179.192357
211,210000,-233868.427005,357240.711800,-123372.284950,-1225.358568,1801.663037,-576.304469
212,211000,-319593.215626,308667.763999,10925.451456,-1644.714704,1537.194113,107.520591
213,212000,-360431.141015,216743.447055,143687.693796,-1833.075671,1056.836627,776.239044
214,213000,-350647.457563,94380.563993,256266.893435,-1763.988938,428.050084,1335.938854
215,214000,-291617.272561,-41237.290703,332854.563179,-1447.155914,-260.860298,1708.016212
216,215000,-191630.653260,-171065.712186,362696.365422,-927.072298,-913.135446,1840.207743
217,216000,-64729.295086,-276869.498522,341598.793649,-276.783226,-1437.158517,1713.941743
218,217000,71263.630355,-343785.878259,272522.248004,412.377416,-1759.333923,1346.956507
