ozeni,ScopeView,2013
4,4A,0D
1,Vmeas2.a,,,V,2.2264127619564533E-4,2452.375,0.0,-2147483648,2147483647,1.0,1.0,S
2,Vmeas2.b,,,V,2.1386539447121322E-4,5678.75,0.0,-2147483648,2147483647,1.0,1.0,S
3,Imeas1.a,,,A,2.180243029670237E-6,779.0238037109375,0.0,-2147483648,2147483647,1.0,1.0,S
4,Imeas1.b,,,A,1.4513746009470196E-6,-787.35205078125,0.0,-2147483648,2147483647,1.0,1.0,S
60.0
1
1000.0,1001
27/04/2026,19:51:02.528437
27/04/2026,19:51:02.528437
ASCII
1.0
0,-4h
0,3
1,1531,882235191,-1728368974,115272032,-706686186,
2,2531,1324542410,-1575282321,335121690,-582696273,
3,3531,1579274488,-1204681150,457721268,-300677713,
4,4531,1610655265,-668615359,465852092,99760836,
5,5531,1414277146,-42373818,358372149,562378988,
6,6531,1017721074,586089736,150376717,1022203390,
7,7531,476682092,1128509406,-128921905,1414653065,
8,8531,-132852513,1508704083,-440297015,1684609633,
9,9531,-725275372,1673276348,-740016928,1794158512,
10,10531,-1217382501,1599112731,-985986832,1727913812,
11,11531,-1540058939,1296629245,-1143661084,1495179501,
12,12531,-1647985635,808308658,-1190894677,1128642381,
13,13531,-1526004660,202734321,-1121053886,679781476,
14,14531,-1191247832,-435042771,-943947591,211637999,
15,15531,-690730873,-1015448659,-684449885,-210038710,
16,16531,-94749793,-1456967101,-379006421,-526025354,
17,17531,512991587,-1697588077,-70515826,-691942620,
18,18531,1047137789,-1703517186,197695302,-684487908,
19,19531,1432669681,-1473921544,387957518,-504708262,
20,20531,1615440289,-1041047413,473549055,-177853014,
21,21531,1569780095,-465690480,442448782,250171815,
22,22531,1302101883,171342021,299024763,719251473,
23,23531,850000461,780580791,63420356,1163505109,
24,24531,276971890,1276460017,-231274445,1520538593,
25,25531,-336503542,1589334969,-543670632,1740207603,
26,26531,-904265023,1675263141,-829893103,1791660459,
27,27531,-1346572242,1522176488,-1049742760,1667670546,
28,28531,-1601304321,1151575317,-1172342338,1385651986,
29,29531,-1632685098,615509526,-1180473162,985213436,
30,30531,-1436306979,-10732016,-1072993219,522595284,
31,31531,-1039750907,-639195569,-864997787,62770883,
32,32531,-498711925,-1181615240,-585699165,-329678793,
33,33531,110822681,-1561809916,-274324055,-599635361,
34,34531,703245539,-1726382181,25395857,-709184239,
35,35531,1195352669,-1652218564,271365762,-642939540,
36,36531,1518029106,-1349735079,429040014,-410205229,
37,37531,1625955803,-861414491,476273607,-43668109,
38,38531,1503974828,-255840154,406432816,405192796,
39,39531,1169217999,381936937,229326521,873336274,
40,40531,668701041,962342826,-30171186,1295012982,
41,41531,72719961,1403861267,-335614650,1610999627,
42,42531,-535021419,1644482244,-644105244,1776916893,
43,43531,-1069167622,1650411353,-912316372,1769462180,
44,44531,-1454699514,1420815711,-1102578588,1589682534,
45,45531,-1637470121,987941580,-1188170125,1262827287,
46,46531,-1591809928,412584646,-1157069853,834802458,
47,47531,-1324131716,-224447854,-1013645833,365722799,
48,48531,-872030294,-833686624,-778041427,-78530836,
49,49531,-299001722,-1329565850,-483346625,-435564321,
50,50531,314473710,-1642440802,-170950438,-655233331,
51,51531,882235191,-1728368974,115272032,-706686186,
52,52531,1324542410,-1575282321,335121690,-582696273,
53,53531,1579274488,-1204681150,457721268,-300677713,
54,54531,1610655265,-668615359,465852092,99760836,
55,55531,1414277146,-42373818,358372149,562378988,
56,56531,1017721074,586089736,150376717,1022203390,
57,57531,476682092,1128509406,-128921905,1414653065,
58,58531,-132852513,1508704083,-440297015,1684609633,
59,59531,-725275372,1673276348,-740016928,1794158512,
60,60531,-1217382501,1599112731,-985986832,1727913812,
61,61531,-1540058939,1296629245,-1143661084,1495179501,
62,62531,-1647985635,808308658,-1190894677,1128642381,
63,63531,-1526004660,202734321,-1121053886,679781476,
64,64531,-1191247832,-435042771,-943947591,211637999,
65,65531,-690730873,-1015448659,-684449885,-210038710,
66,66531,-94749793,-1456967101,-379006421,-526025354,
67,67531,512991587,-1697588077,-70515826,-691942620,
68,68531,1047137789,-1703517186,197695302,-684487908,
69,69531,1432669681,-1473921544,387957518,-504708262,
70,70531,1615440289,-1041047413,473549055,-177853014,
71,71531,1569780095,-465690480,442448782,250171815,
72,72531,1302101883,171342021,299024763,719251473,
73,73531,850000461,780580791,63420356,1163505109,
74,74531,276971890,1276460017,-231274445,1520538593,
75,75531,-336503542,1589334969,-543670632,1740207603,
76,76531,-904265023,1675263141,-829893103,1791660459,
77,77531,-1346572242,1522176488,-1049742760,1667670546,
78,78531,-1601304321,1151575317,-1172342338,1385651986,
79,79531,-1632685098,615509526,-1180473162,985213436,
80,80531,-1436306979,-10732016,-1072993219,522595284,
81,81531,-1039750907,-639195569,-864997787,62770883,
82,82531,-498711925,-1181615240,-585699165,-329678793,
83,83531,110822681,-1561809916,-274324055,-599635361,
84,84531,703245539,-1726382181,25395857,-709184239,
85,85531,1195352669,-1652218564,271365762,-642939540,
86,86531,1518029106,-1349735079,429040014,-410205229,
87,87531,1625955803,-861414491,476273607,-43668109,
88,88531,1503974828,-255840154,406432816,405192796,
89,89531,1169217999,381936937,229326521,873336274,
90,90531,668701041,962342826,-30171186,1295012982,
91,91531,72719961,1403861267,-335614650,1610999627,
92,92531,-535021419,1644482244,-644105244,1776916893,
93,93531,-1069167622,1650411353,-912316372,1769462180,
94,94531,-1454699514,1420815711,-1102578588,1589682534,
95,95531,-1637470121,987941580,-1188170125,1262827287,
96,96531,-1591809928,412584646,-1157069853,834802458,
97,97531,-1324131716,-224447854,-1013645833,365722799,
98,98531,-872030294,-833686624,-778041427,-78530836,
99,99531,-299001722,-1329565850,-483346625,-435564321,
100,100531,314473710,-1642440802,-170950438,-655233331,
101,101531,882235191,-1728368974,115272032,-706686186,
102,102531,1324542410,-1575282321,335121690,-582696273,
103,103531,1579274488,-1204681150,457721268,-300677713,
104,104531,1610655265,-668615359,465852092,99760836,
105,105531,1414277146,-42373818,358372149,562378988,
106,106531,1017721074,586089736,150376717,1022203390,
107,107531,476682092,1128509406,-128921905,1414653065,
108,108531,-132852513,1508704083,-440297015,1684609633,
109,109531,-725275372,1673276348,-740016928,1794158512,
110,110531,-1217382501,1599112731,-985986832,1727913812,
111,111531,-1540058939,1296629245,-1143661084,1495179501,
112,112531,-1647985635,808308658,-1190894677,1128642381,
113,113531,-1526004660,202734321,-1121053886,679781476,
114,114531,-1191247832,-435042771,-943947591,211637999,
115,115531,-690730873,-1015448659,-684449885,-210038710,
116,116531,-94749793,-1456967101,-379006421,-526025354,
117,117531,512991587,-1697588077,-70515826,-691942620,
118,118531,1047137789,-1703517186,197695302,-684487908,
119,119531,1432669681,-1473921544,387957518,-504708262,
120,120531,1615440289,-1041047413,473549055,-177853014,
121,121531,1569780095,-465690480,442448782,250171815,
122,122531,1302101883,171342021,299024763,719251473,
123,123531,850000461,780580791,63420356,1163505109,
124,124531,276971890,1276460017,-231274445,1520538593,
125,125531,-336503542,1589334969,-543670632,1740207603,
126,126531,-904265023,1675263141,-829893103,1791660459,
127,127531,-1346572242,1522176488,-1049742760,1667670546,
128,128531,-1601304321,1151575317,-1172342338,1385651986,
129,129531,-1632685098,615509526,-1180473162,985213436,
130,130531,-1436306979,-10732016,-1072993219,522595284,
131,131531,-1039750907,-639195569,-864997787,62770883,
132,132531,-498711925,-1181615240,-585699165,-329678793,
133,133531,110822681,-1561809916,-274324055,-599635361,
134,134531,703245539,-1726382181,25395857,-709184239,
135,135531,1195352669,-1652218564,271365762,-642939540,
136,136531,1518029106,-1349735079,429040014,-410205229,
137,137531,1625955803,-861414491,476273607,-43668109,
138,138531,1503974828,-255840154,406432816,405192796,
139,139531,1169217999,381936937,229326521,873336274,
140,140531,668701041,962342826,-30171186,1295012982,
141,141531,72719961,1403861267,-335614650,1610999627,
142,142531,-535021419,1644482244,-644105244,1776916893,
143,143531,-1069167622,1650411353,-912316372,1769462180,
144,144531,-1454699514,1420815711,-1102578588,1589682534,
145,145531,-1637470121,987941580,-1188170125,1262827287,
146,146531,-1591809928,412584646,-1157069853,834802458,
147,147531,-1324131716,-224447854,-1013645833,365722799,
148,148531,-872030294,-833686624,-778041427,-78530836,
149,149531,-299001722,-1329565850,-483346625,-435564321,
150,150531,314473710,-1642440802,-170950438,-655233331,
151,151531,882235191,-1728368974,115272032,-706686186,
152,152531,1324542410,-1575282321,335121690,-582696273,
153,153531,1579274488,-1204681150,457721268,-300677713,
154,154531,1610655265,-668615359,465852092,99760836,
155,155531,1414277146,-42373818,358372149,562378988,
156,156531,1017721074,586089736,150376717,1022203390,
157,157531,476682092,1128509406,-128921905,1414653065,
158,158531,-132852513,1508704083,-440297015,1684609633,
159,159531,-725275372,1673276348,-740016928,1794158512,
160,160531,-1217382501,1599112731,-985986832,1727913812,
161,161531,-1540058939,1296629245,-1143661084,1495179501,
162,162531,-1647985635,808308658,-1190894677,1128642381,
163,163531,-1526004660,202734321,-1121053886,679781476,
164,164531,-1191247832,-435042771,-943947591,211637999,
165,165531,-690730873,-1015448659,-684449885,-210038710,
166,166531,-94749793,-1456967101,-379006421,-526025354,
167,167531,512991587,-1697588077,-70515826,-691942620,
168,168531,1047137789,-1703517186,197695302,-684487908,
169,169531,1432669681,-1473921544,387957518,-504708262,
170,170531,1615440289,-1041047413,473549055,-177853014,
171,171531,1569780095,-465690480,442448782,250171815,
172,172531,1302101883,171342021,299024763,719251473,
173,173531,850000461,780580791,63420356,1163505109,
174,174531,276971890,1276460017,-231274445,1520538593,
175,175531,-336503542,1589334969,-543670632,1740207603,
176,176531,-904265023,1675263141,-829893103,1791660459,
177,177531,-1346572242,1522176488,-1049742760,1667670546,
178,178531,-1601304321,1151575317,-1172342338,1385651986,
179,179531,-1632685098,615509526,-1180473162,985213436,
180,180531,-1436306979,-10732016,-1072993219,522595284,
181,181531,-1039750907,-639195569,-864997787,62770883,
182,182531,-498711925,-1181615240,-585699165,-329678793,
183,183531,110822681,-1561809916,-274324055,-599635361,
184,184531,703245539,-1726382181,25395857,-709184239,
185,185531,1195352669,-1652218564,271365762,-642939540,
186,186531,1518029106,-1349735079,429040014,-410205229,
187,187531,1625955803,-861414491,476273607,-43668109,
188,188531,1503974828,-255840154,406432816,405192796,
189,189531,1169217999,381936937,229326521,873336274,
190,190531,668701041,962342826,-30171186,1295012982,
191,191531,72719961,1403861267,-335614650,1610999627,
192,192531,-535021419,1644482244,-644105244,1776916893,
193,193531,-1069167622,1650411353,-912316372,1769462180,
194,194531,-1454699514,1420815711,-1102578588,1589682534,
195,195531,-1637470121,987941580,-1188170125,1262827287,
196,196531,-1591809928,412584646,-1157069853,834802458,
197,197531,-1324131716,-224447854,-1013645833,365722799,
198,198531,-872030294,-833686624,-778041427,-78530836,
199,199531,-299001722,-1329565850,-483346625,-435564321,
200,200531,314473710,-1642440802,-170950438,-655233331,
201,201531,-297509078,-500101252,319377439,-1013327653,
202,202531,-44827425,-149682077,977962500,-1548447884,
203,203531,314446620,111801485,1549115319,-1940169911,
204,204531,465918737,522883726,1961916024,-2147483648,
205,205531,768387815,629977154,2147483647,-2125020433,
206,206531,695262196,921850651,2086991897,-1886789246,
207,207531,829260821,761559115,1780806269,-1453982110,
208,208531,508919839,840596052,1276020159,-893508254,
209,209531,471619366,427231052,638972956,-277237263,
210,210531,2713988,329047179,-40603143,307847598,
211,211531,-107406021,-194610180,-667815291,780368314,
212,212531,-549548431,-335034224,-1158282357,1079554227,
213,213531,-596262134,-765108661,-1439706711,1158294615,
214,214531,-844212353,-796412960,-1479933018,1016626317,
215,215531,-736528409,-967817356,-1266551638,664263897,
216,216531,-712436614,-813844558,-839798228,166048388,
217,217531,-462782035,-681738538,-250464174,-421779234,
218,218531,-213947213,-390863624,406760410,-998661128,
219,219531,63157905,-48473587,1049809220,-1498921828,
220,220531,395174260,229190415,1576056481,-1833905146,
221,221531,542556873,603782085,1921451426,-1971452385,
222,222531,798431169,695688170,2026330834,-1875399181,
223,223531,701854007,934635562,1884167022,-1571452914,
224,224531,789229848,743138797,1506094809,-1089117704,
225,225531,444609093,776313869,950476225,-504129608,
226,226531,381509341,336876322,289932490,109544295,
227,227531,-96801326,221252704,-381127791,663290941,
228,228531,-199520909,-307652716,-969963530,1081581030,
229,229531,-630781228,-427531840,-1396229105,1309228527,
230,230531,-639331978,-840344726,-1597559289,1310490127,
231,231531,-864659272,-821313479,-1551868201,1094425173,
232,232531,-705000535,-966842371,-1259484163,682272128,
233,233531,-664382224,-754933818,-770758392,145931119,
234,234531,-370609836,-608632792,-145571700,-452443103,
235,235531,-126927308,-275774805,516873363,-1011740728,
236,236531,170189831,53440083,1133760829,-1468804905,
237,237531,469704290,342248203,1606339757,-1741213351,
238,238531,609936527,674664944,1878572346,-1806139846,
239,239531,816008491,749506339,1900777708,-1637297854,
240,240531,697099652,932884168,1678763951,-1271924939,
241,241531,737223684,712237058,1234305880,-747190118,
242,242531,372571687,699693757,636251203,-146343326,
243,243531,285583346,240067419,-37701245,455692649,
244,244531,-195450969,109965598,-690009539,969957408,
245,245531,-288045178,-416689192,-1231553390,1327950591,
246,246531,-702458609,-513114768,-1587298464,1480964377,
247,247531,-672074531,-903219262,-1705738035,1405207043,
248,248531,-872151565,-833595884,-1575182040,1118742351,
249,249531,-662306435,-951456160,-1208687634,653887056,
250,250531,-606017597,-684219873,-666056695,88413835,
251,251531,-272420180,-526292595,-15267166,-510678407,
252,252531,-38100648,-156821351,641563245,-1043099234,
253,253531,274070747,153838641,1222300987,-1449194926,
254,254531,536764238,449211985,1633485617,-1654111622,
255,255531,667600335,734967842,1827914110,-1644984701,
256,256531,821044268,790890430,1766677253,-1405641454,
257,257531,680669144,916159498,1468019388,-984128838,
258,258531,673679551,669008056,963937400,-424674103,
259,259531,294112165,612100620,332593212,183038444,
260,260531,185676031,138703957,-344497784,764335834,
261,261531,-291566871,-2922305,-968103285,1231406289,
262,262531,-371798021,-520233622,-1454098317,1523925317,
263,263531,-763792910,-590729738,-1733977478,1600394867,
264,264531,-693928001,-952731567,-1767926823,1449267089,
265,265531,-866272994,-832673502,-1554875947,1097346240,
266,266531,-608877439,-921715344,-1120364210,587474275,
267,267531,-538538112,-602991101,-532698686,2200694,
268,268531,-170130985,-436490308,133211848,-587695323,
269,269531,51097270,-35796025,773827587,-1084332875,
270,270531,373704746,251619041,1308964496,-1432722967,
271,271531,595423762,548641239,1651919763,-1566591379,
272,272531,714242279,783243754,1765236088,-1483161917,
273,273531,813072504,818891030,1621315555,-1176573690,
274,274531,653085535,884939876,1250498662,-705163771,
275,275531,599981683,614601244,694418166,-119497775,
276,276531,210480243,514903349,39448223,485795264,
277,277531,82962799,34009550,-630322355,1037626075,
278,278531,-383818549,-115821948,-1215581654,1450583864,
279,279531,-449229474,-616410209,-1638620285,1673366839,
280,280531,-813585942,-658865359,-1838502473,1672394734,
281,281531,-704524362,-988114293,-1787672574,1448612319,
282,282531,-847365758,-818745056,-1495720325,1037167568,
283,283531,-545772072,-878372515,-1000239920,490697953,
284,284531,-462958608,-512378542,-377029812,-104752400,
285,285531,-64930827,-340286762,293257808,-675866468,
286,286531,139273858,85526808,907272631,-1128593684,
287,287531,467186226,344798398,1388171347,-1413457825,
288,288531,644458919,638768680,1657308398,-1473729856,
289,289531,749405556,818938154,1687540612,-1316981902,
290,290531,792556949,833523700,1462922569,-947722080,
291,291531,614771309,839630711,1025552297,-433613550,
292,292531,516819950,549464771,426062558,169422202,
293,293531,122889229,409486648,-242346990,763130228,
294,294531,-20609502,-71980686,-894464179,1277083455,
295,295531,-470516450,-226715672,-1432397866,1629636239,
296,296531,-519283378,-703858759,-1786018986,1779461456,
297,297531,-851319848,-716698100,-1902914372,1701415747,
298,298531,-703749503,-1008892988,-1768272165,1408837424,
299,299531,-815560812,-791786949,-1402237095,944635659,
300,300531,-473735684,-821910014,-853813865,370416341,
301,301531,-380573594,-413829552,-205095787,-225533265,
302,302531,41289536,-239518428,458838255,-768573823,
303,303531,224857525,205156533,1036398995,-1169911431,
304,304531,553295210,432074344,1455317652,-1386489856,
305,305531,683348693,718551705,1646157566,-1371979602,
306,306531,772494477,841356460,1592631334,-1144192110,
307,307531,759368682,834188985,1290704365,-717743020,
308,308531,566310962,780847825,793566955,-168728027,
309,309531,425827058,475049791,159918527,442414443,
310,310531,32939658,297686222,-511602011,1015333639,
311,311531,-123654579,-177799345,-1135962721,1483562012,
312,312531,-550566008,-334153779,-1618201430,1770460022,
313,313531,-580830360,-781155773,-1896968867,1845255176,
314,314531,-876111410,-763002123,-1929226998,1691562144,
315,315531,-691496328,-1014630388,-1713089544,1334987714,
316,316531,-771588030,-752407842,-1278895938,825610774,
317,317531,-394062255,-753438499,-686299743,232964742,
318,318531,-292696895,-308828781,-22458686,-353823721,
319,319531,147071996,-135623420,624498486,-860030932,
320,320531,306615322,321428156,1156308398,-1203439722,
321,321531,630607040,511907598,1506494797,-1348128795,
322,322531,711127754,786481918,1615891535,-1258782091,
323,323531,783191898,850096040,1479349050,-963308059,
324,324531,714289580,821251159,1104702375,-486175521,
325,325531,508653646,709629986,555467693,89217769,
326,326531,328165964,392336732,-102507532,699048216,
327,327531,-58190019,180949426,-766630272,1242404837,
328,328531,-224483623,-281645174,-1353508698,1657785571,
329,329531,-622361854,-436114780,-1772615256,1874637259,
330,330531,-632876597,-847033585,-1972308872,1873376752,
331,331531,-887850937,-797333662,-1919528753,1646691226,
332,332531,-668087386,-1005376612,-1625399976,1231993522,
333,333531,-716026609,-701071741,-1130028246,685673245,
334,334531,-307799296,-673864426,-502753515,84092307,
335,335531,-200716709,-198957321,165588845,-484105235,
336,336531,250610941,-30458202,785262508,-945306872,
337,337531,383046988,432383643,1262822918,-1225130669,
338,338531,698033891,583088468,1538651140,-1295475989,
339,339531,727515242,841760628,1564728275,-1132523148,
340,340531,781437324,845030938,1347196687,-773897944,
341,341531,657794202,794779704,905603925,-253408492,
342,342531,442536673,626831776,312864370,339490616,
343,343531,225442477,302789753,-359170430,938614882,
344,344531,-148723230,61400734,-1005556105,1443943977,
345,345531,-321549274,-381852078,-1545853157,1800061371,
346,346531,-685048175,-531324089,-1895299489,1943632836,
347,347531,-674715621,-900535112,-2012847375,1866570334,
348,348531,-886157279,-818950720,-1875968955,1570621099,
349,349531,-633701634,-981081175,-1508633365,1104446485,
350,350531,-649826649,-638637318,-960017980,529939785,
