ozeni,ScopeView,2013
8,8A,0D
1,Vmeas2.a,,,V,2.2264127619564533E-4,2452.375,0.0,-2147483648,2147483647,1.0,1.0,S
2,Vmeas2.b,,,V,2.1386539447121322E-4,5678.75,0.0,-2147483648,2147483647,1.0,1.0,S
3,Imeas1.a,,,A,2.180243029670237E-6,779.0238037109375,0.0,-2147483648,2147483647,1.0,1.0,S
4,Imeas1.b,,,A,1.4513746009470196E-6,-787.35205078125,0.0,-2147483648,2147483647,1.0,1.0,S
5,VrmsL1.Out[Phase1],,,?,4.092503877473064E-5,206791.6484375,0.0,-2147483648,2147483647,1.0,1.0,S
6,VrmsL1.Out[Phase2],,,?,3.6089561035623774E-5,212448.6328125,0.0,-2147483648,2147483647,1.0,1.0,S
7,IrmsL1.Out[Phase1],,,?,4.501765147324477E-7,2237.7767333984375,0.0,-2147483648,2147483647,1.0,1.0,S
8,IrmsL1.Out[Phase2],,,?,2.8896968728986394E-7,1787.7853393554688,0.0,-2147483648,2147483647,1.0,1.0,S
60.0
1
1000.0,1001
27/04/2026,19:58:22.986462
27/04/2026,19:58:22.986462
ASCII
1.0
0,-4h
0,3
1,1531,882235191,-1728368974,115272032,-706686186,1230533921,1257829314,-2120769138,-1734026993,
2,2531,1324542410,-1575282321,335121690,-582696273,1231017656,1268296330,-2120299758,-1727722603,
3,3531,1579274488,-1204681150,457721268,-300677713,1238876919,1271354261,-2116564515,-1726195931,
4,4531,1610655265,-668615359,465852092,99760836,1249835598,1265354430,-2111595761,-1730270719,
5,5531,1414277146,-42373815,358372149,562378988,1257952573,1253534011,-2108086396,-1737747782,
6,6531,1017721074,586089736,150376717,1022203390,1258843684,1242289416,-2107931292,-1744579790,
7,7531,476682092,1128509406,-128921905,1414653065,1252029014,1237730012,-2111213967,-1747054402,
8,8531,-132852513,1508704083,-440297015,1684609633,1241186400,1242339638,-2116162655,-1743822790,
9,9531,-725275372,1673276348,-740016928,1794158512,1232189005,1253607612,-2120095845,-1736645654,
10,10531,-1217382501,1599112731,-985986832,1727913812,1229928775,1265411147,-2120874619,-1729421206,
11,11531,-1540058939,1296629245,-1143661084,1495179501,1235637765,1271363353,-2118074340,-1726057795,
12,12531,-1647985635,808308658,-1190894677,1128642381,1246206631,1268253035,-2113220016,-1728370193,
13,13531,-1526004660,202734321,-1121053886,679781476,1255898512,1257757012,-2108945976,-1735110955,
14,14531,-1191247832,-435042771,-943947591,211637999,1259472883,1245548668,-2107562513,-1742636176,
15,15531,-690730873,-1015448659,-684449885,-210038710,1255002056,1238252150,-2109815860,-1746861350,
16,16531,-94749793,-1456967101,-379006419,-526025354,1244897835,1239840214,-2114490134,-1745485908,
17,17531,512991587,-1697588077,-70515826,-691942620,1234625625,1249447389,-2119056485,-1739259247,
18,18531,1047137789,-1703517186,197695302,-684487908,1229764221,1261847963,-2121034333,-1731567588,
19,19531,1432669681,-1473921544,387957518,-504708262,1232961378,1270322539,-2119346085,-1726577810,
20,20531,1615440289,-1041047413,473549055,-177853014,1242475342,1270295263,-2114911789,-1726983346,
21,21531,1569780095,-465690480,442448782,250171815,1253135076,1261781288,-2110140711,-1732565375,
22,22531,1302101883,171342021,299024763,719251473,1259169355,1249377251,-2107615389,-1740309838,
23,23531,850000461,780580791,63420356,1163505109,1257321846,1239804712,-2108698406,-1746018596,
24,24531,276971890,1276460017,-231274445,1520538593,1248589035,1238270767,-2112805410,-1746585924,
25,25531,-336503542,1589334969,-543670632,1740207603,1237689153,1245611013,-2117717492,-1741702599,
26,26531,-904265023,1675263141,-829893103,1791660459,1230533921,1257829314,-2120769138,-1734026993,
27,27531,-1346572242,1522176488,-1049742760,1667670546,1231017656,1268296330,-2120299758,-1727722603,
28,28531,-1601304321,1151575317,-1172342338,1385651986,1238876919,1271354261,-2116564515,-1726195931,
29,29531,-1632685098,615509526,-1180473162,985213436,1249835598,1265354430,-2111595761,-1730270719,
30,30531,-1436306979,-10732018,-1072993219,522595284,1257952573,1253534011,-2108086396,-1737747782,
31,31531,-1039750907,-639195569,-864997787,62770883,1258843684,1242289416,-2107931292,-1744579790,
32,32531,-498711925,-1181615240,-585699165,-329678793,1252029014,1237730012,-2111213967,-1747054402,
33,33531,110822681,-1561809916,-274324055,-599635361,1241186400,1242339638,-2116162655,-1743822790,
34,34531,703245539,-1726382181,25395857,-709184239,1232189005,1253607612,-2120095845,-1736645654,
35,35531,1195352669,-1652218564,271365762,-642939540,1229928775,1265411147,-2120874619,-1729421206,
36,36531,1518029106,-1349735079,429040014,-410205229,1235637765,1271363353,-2118074340,-1726057795,
37,37531,1625955803,-861414491,476273607,-43668109,1246206631,1268253035,-2113220016,-1728370193,
38,38531,1503974828,-255840154,406432816,405192796,1255898512,1257757012,-2108945976,-1735110955,
39,39531,1169217999,381936937,229326521,873336274,1259472883,1245548668,-2107562513,-1742636176,
40,40531,668701041,962342826,-30171186,1295012982,1255002056,1238252150,-2109815860,-1746861350,
41,41531,72719961,1403861267,-335614651,1610999627,1244897835,1239840214,-2114490134,-1745485908,
42,42531,-535021419,1644482244,-644105244,1776916893,1234625625,1249447389,-2119056485,-1739259247,
43,43531,-1069167622,1650411353,-912316372,1769462180,1229764221,1261847963,-2121034333,-1731567588,
44,44531,-1454699514,1420815711,-1102578588,1589682534,1232961378,1270322539,-2119346085,-1726577810,
45,45531,-1637470121,987941580,-1188170125,1262827287,1242475342,1270295263,-2114911789,-1726983346,
46,46531,-1591809928,412584646,-1157069853,834802458,1253135076,1261781288,-2110140711,-1732565375,
47,47531,-1324131716,-224447854,-1013645833,365722799,1259169355,1249377251,-2107615389,-1740309838,
48,48531,-872030294,-833686624,-778041427,-78530836,1257321846,1239804712,-2108698406,-1746018596,
49,49531,-299001722,-1329565850,-483346625,-435564321,1248589035,1238270767,-2112805410,-1746585924,
50,50531,314473710,-1642440802,-170950438,-655233331,1237689153,1245611013,-2117717492,-1741702599,
51,51531,882235191,-1728368974,115272032,-706686186,1230533921,1257829314,-2120769138,-1734026993,
52,52531,1324542410,-1575282321,335121690,-582696273,1231017656,1268296330,-2120299758,-1727722603,
53,53531,1579274488,-1204681150,457721268,-300677713,1238876919,1271354261,-2116564515,-1726195931,
54,54531,1610655265,-668615359,465852092,99760836,1249835598,1265354430,-2111595761,-1730270719,
55,55531,1414277146,-42373815,358372149,562378988,1257952573,1253534011,-2108086396,-1737747782,
56,56531,1017721074,586089736,150376717,1022203390,1258843684,1242289416,-2107931292,-1744579790,
57,57531,476682092,1128509406,-128921905,1414653065,1252029014,1237730012,-2111213967,-1747054402,
58,58531,-132852513,1508704083,-440297015,1684609633,1241186400,1242339638,-2116162655,-1743822790,
59,59531,-725275372,1673276348,-740016928,1794158512,1232189005,1253607612,-2120095845,-1736645654,
60,60531,-1217382501,1599112731,-985986832,1727913812,1229928775,1265411147,-2120874619,-1729421206,
61,61531,-1540058939,1296629245,-1143661084,1495179501,1235637765,1271363353,-2118074340,-1726057795,
62,62531,-1647985635,808308658,-1190894677,1128642381,1246206631,1268253035,-2113220016,-1728370193,
63,63531,-1526004660,202734321,-1121053886,679781476,1255898512,1257757012,-2108945976,-1735110955,
64,64531,-1191247832,-435042771,-943947591,211637999,1259472883,1245548668,-2107562513,-1742636176,
65,65531,-690730873,-1015448659,-684449885,-210038710,1255002056,1238252150,-2109815860,-1746861350,
66,66531,-94749793,-1456967101,-379006419,-526025354,1244897835,1239840214,-2114490134,-1745485908,
67,67531,512991587,-1697588077,-70515826,-691942620,1234625625,1249447389,-2119056485,-1739259247,
68,68531,1047137789,-1703517186,197695302,-684487908,1229764221,1261847963,-2121034333,-1731567588,
69,69531,1432669681,-1473921544,387957518,-504708262,1232961378,1270322539,-2119346085,-1726577810,
70,70531,1615440289,-1041047413,473549055,-177853014,1242475342,1270295263,-2114911789,-1726983346,
71,71531,1569780095,-465690480,442448782,250171815,1253135076,1261781288,-2110140711,-1732565375,
72,72531,1302101883,171342021,299024763,719251473,1259169355,1249377251,-2107615389,-1740309838,
73,73531,850000461,780580791,63420356,1163505109,1257321846,1239804712,-2108698406,-1746018596,
74,74531,276971890,1276460017,-231274445,1520538593,1248589035,1238270767,-2112805410,-1746585924,
75,75531,-336503542,1589334969,-543670632,1740207603,1237689153,1245611013,-2117717492,-1741702599,
76,76531,-904265023,1675263141,-829893103,1791660459,1230533921,1257829314,-2120769138,-1734026993,
77,77531,-1346572242,1522176488,-1049742760,1667670546,1231017656,1268296330,-2120299758,-1727722603,
78,78531,-1601304321,1151575317,-1172342338,1385651986,1238876919,1271354261,-2116564515,-1726195931,
79,79531,-1632685098,615509526,-1180473162,985213436,1249835598,1265354430,-2111595761,-1730270719,
80,80531,-1436306979,-10732018,-1072993219,522595284,1257952573,1253534011,-2108086396,-1737747782,
81,81531,-1039750907,-639195569,-864997787,62770883,1258843684,1242289416,-2107931292,-1744579790,
82,82531,-498711925,-1181615240,-585699165,-329678793,1252029014,1237730012,-2111213967,-1747054402,
83,83531,110822681,-1561809916,-274324055,-599635361,1241186400,1242339638,-2116162655,-1743822790,
84,84531,703245539,-1726382181,25395857,-709184239,1232189005,1253607612,-2120095845,-1736645654,
85,85531,1195352669,-1652218564,271365762,-642939540,1229928775,1265411147,-2120874619,-1729421206,
86,86531,1518029106,-1349735079,429040014,-410205229,1235637765,1271363353,-2118074340,-1726057795,
87,87531,1625955803,-861414491,476273607,-43668109,1246206631,1268253035,-2113220016,-1728370193,
88,88531,1503974828,-255840154,406432816,405192796,1255898512,1257757012,-2108945976,-1735110955,
89,89531,1169217999,381936937,229326521,873336274,1259472883,1245548668,-2107562513,-1742636176,
90,90531,668701041,962342826,-30171186,1295012982,1255002056,1238252150,-2109815860,-1746861350,
91,91531,72719961,1403861267,-335614651,1610999627,1244897835,1239840214,-2114490134,-1745485908,
92,92531,-535021419,1644482244,-644105244,1776916893,1234625625,1249447389,-2119056485,-1739259247,
93,93531,-1069167622,1650411353,-912316372,1769462180,1229764221,1261847963,-2121034333,-1731567588,
94,94531,-1454699514,1420815711,-1102578588,1589682534,1232961378,1270322539,-2119346085,-1726577810,
95,95531,-1637470121,987941580,-1188170125,1262827287,1242475342,1270295263,-2114911789,-1726983346,
96,96531,-1591809928,412584646,-1157069853,834802458,1253135076,1261781288,-2110140711,-1732565375,
97,97531,-1324131716,-224447854,-1013645833,365722799,1259169355,1249377251,-2107615389,-1740309838,
98,98531,-872030294,-833686624,-778041427,-78530836,1257321846,1239804712,-2108698406,-1746018596,
99,99531,-299001722,-1329565850,-483346625,-435564321,1248589035,1238270767,-2112805410,-1746585924,
100,100531,314473710,-1642440802,-170950438,-655233331,1237689153,1245611013,-2117717492,-1741702599,
101,101531,882235191,-1728368974,115272032,-706686186,1230533921,1257829314,-2120769138,-1734026993,
102,102531,1324542410,-1575282321,335121690,-582696273,1231017656,1268296330,-2120299758,-1727722603,
103,103531,1579274488,-1204681150,457721268,-300677713,1238876919,1271354261,-2116564515,-1726195931,
104,104531,1610655265,-668615359,465852092,99760836,1249835598,1265354430,-2111595761,-1730270719,
105,105531,1414277146,-42373815,358372149,562378988,1257952573,1253534011,-2108086396,-1737747782,
106,106531,1017721074,586089736,150376717,1022203390,1258843684,1242289416,-2107931292,-1744579790,
107,107531,476682092,1128509406,-128921905,1414653065,1252029014,1237730012,-2111213967,-1747054402,
108,108531,-132852513,1508704083,-440297015,1684609633,1241186400,1242339638,-2116162655,-1743822790,
109,109531,-725275372,1673276348,-740016928,1794158512,1232189005,1253607612,-2120095845,-1736645654,
110,110531,-1217382501,1599112731,-985986832,1727913812,1229928775,1265411147,-2120874619,-1729421206,
111,111531,-1540058939,1296629245,-1143661084,1495179501,1235637765,1271363353,-2118074340,-1726057795,
112,112531,-1647985635,808308658,-1190894677,1128642381,1246206631,1268253035,-2113220016,-1728370193,
113,113531,-1526004660,202734321,-1121053886,679781476,1255898512,1257757012,-2108945976,-1735110955,
114,114531,-1191247832,-435042771,-943947591,211637999,1259472883,1245548668,-2107562513,-1742636176,
115,115531,-690730873,-1015448659,-684449885,-210038710,1255002056,1238252150,-2109815860,-1746861350,
116,116531,-94749793,-1456967101,-379006419,-526025354,1244897835,1239840214,-2114490134,-1745485908,
117,117531,512991587,-1697588077,-70515826,-691942620,1234625625,1249447389,-2119056485,-1739259247,
118,118531,1047137789,-1703517186,197695302,-684487908,1229764221,1261847963,-2121034333,-1731567588,
119,119531,1432669681,-1473921544,387957518,-504708262,1232961378,1270322539,-2119346085,-1726577810,
120,120531,1615440289,-1041047413,473549055,-177853014,1242475342,1270295263,-2114911789,-1726983346,
121,121531,1569780095,-465690480,442448782,250171815,1253135076,1261781288,-2110140711,-1732565375,
122,122531,1302101883,171342021,299024763,719251473,1259169355,1249377251,-2107615389,-1740309838,
123,123531,850000461,780580791,63420356,1163505109,1257321846,1239804712,-2108698406,-1746018596,
124,124531,276971890,1276460017,-231274445,1520538593,1248589035,1238270767,-2112805410,-1746585924,
125,125531,-336503542,1589334969,-543670632,1740207603,1237689153,1245611013,-2117717492,-1741702599,
126,126531,-904265023,1675263141,-829893103,1791660459,1230533921,1257829314,-2120769138,-1734026993,
127,127531,-1346572242,1522176488,-1049742760,1667670546,1231017656,1268296330,-2120299758,-1727722603,
128,128531,-1601304321,1151575317,-1172342338,1385651986,1238876919,1271354261,-2116564515,-1726195931,
129,129531,-1632685098,615509526,-1180473162,985213436,1249835598,1265354430,-2111595761,-1730270719,
130,130531,-1436306979,-10732018,-1072993219,522595284,1257952573,1253534011,-2108086396,-1737747782,
131,131531,-1039750907,-639195569,-864997787,62770883,1258843684,1242289416,-2107931292,-1744579790,
132,132531,-498711925,-1181615240,-585699165,-329678793,1252029014,1237730012,-2111213967,-1747054402,
133,133531,110822681,-1561809916,-274324055,-599635361,1241186400,1242339638,-2116162655,-1743822790,
134,134531,703245539,-1726382181,25395857,-709184239,1232189005,1253607612,-2120095845,-1736645654,
135,135531,1195352669,-1652218564,271365762,-642939540,1229928775,1265411147,-2120874619,-1729421206,
136,136531,1518029106,-1349735079,429040014,-410205229,1235637765,1271363353,-2118074340,-1726057795,
137,137531,1625955803,-861414491,476273607,-43668109,1246206631,1268253035,-2113220016,-1728370193,
138,138531,1503974828,-255840154,406432816,405192796,1255898512,1257757012,-2108945976,-1735110955,
139,139531,1169217999,381936937,229326521,873336274,1259472883,1245548668,-2107562513,-1742636176,
140,140531,668701041,962342826,-30171186,1295012982,1255002056,1238252150,-2109815860,-1746861350,
141,141531,72719961,1403861267,-335614651,1610999627,1244897835,1239840214,-2114490134,-1745485908,
142,142531,-535021419,1644482244,-644105244,1776916893,1234625625,1249447389,-2119056485,-1739259247,
143,143531,-1069167622,1650411353,-912316372,1769462180,1229764221,1261847963,-2121034333,-1731567588,
144,144531,-1454699514,1420815711,-1102578588,1589682534,1232961378,1270322539,-2119346085,-1726577810,
145,145531,-1637470121,987941580,-1188170125,1262827287,1242475342,1270295263,-2114911789,-1726983346,
146,146531,-1591809928,412584646,-1157069853,834802458,1253135076,1261781288,-2110140711,-1732565375,
147,147531,-1324131716,-224447854,-1013645833,365722799,1259169355,1249377251,-2107615389,-1740309838,
148,148531,-872030294,-833686624,-778041427,-78530836,1257321846,1239804712,-2108698406,-1746018596,
149,149531,-299001722,-1329565850,-483346625,-435564321,1248589035,1238270767,-2112805410,-1746585924,
150,150531,314473710,-1642440802,-170950438,-655233331,1237689153,1245611013,-2117717492,-1741702599,
151,151531,882235191,-1728368974,115272032,-706686186,1230533921,1257829314,-2120769138,-1734026993,
152,152531,1324542410,-1575282321,335121690,-582696273,1231017656,1268296330,-2120299758,-1727722603,
153,153531,1579274488,-1204681150,457721268,-300677713,1238876919,1271354261,-2116564515,-1726195931,
154,154531,1610655265,-668615359,465852092,99760836,1249835598,1265354430,-2111595761,-1730270719,
155,155531,1414277146,-42373815,358372149,562378988,1257952573,1253534011,-2108086396,-1737747782,
156,156531,1017721074,586089736,150376717,1022203390,1258843684,1242289416,-2107931292,-1744579790,
157,157531,476682092,1128509406,-128921905,1414653065,1252029014,1237730012,-2111213967,-1747054402,
158,158531,-132852513,1508704083,-440297015,1684609633,1241186400,1242339638,-2116162655,-1743822790,
159,159531,-725275372,1673276348,-740016928,1794158512,1232189005,1253607612,-2120095845,-1736645654,
160,160531,-1217382501,1599112731,-985986832,1727913812,1229928775,1265411147,-2120874619,-1729421206,
161,161531,-1540058939,1296629245,-1143661084,1495179501,1235637765,1271363353,-2118074340,-1726057795,
162,162531,-1647985635,808308658,-1190894677,1128642381,1246206631,1268253035,-2113220016,-1728370193,
163,163531,-1526004660,202734321,-1121053886,679781476,1255898512,1257757012,-2108945976,-1735110955,
164,164531,-1191247832,-435042771,-943947591,211637999,1259472883,1245548668,-2107562513,-1742636176,
165,165531,-690730873,-1015448659,-684449885,-210038710,1255002056,1238252150,-2109815860,-1746861350,
166,166531,-94749793,-1456967101,-379006419,-526025354,1244897835,1239840214,-2114490134,-1745485908,
167,167531,512991587,-1697588077,-70515826,-691942620,1234625625,1249447389,-2119056485,-1739259247,
168,168531,1047137789,-1703517186,197695302,-684487908,1229764221,1261847963,-2121034333,-1731567588,
169,169531,1432669681,-1473921544,387957518,-504708262,1232961378,1270322539,-2119346085,-1726577810,
170,170531,1615440289,-1041047413,473549055,-177853014,1242475342,1270295263,-2114911789,-1726983346,
171,171531,1569780095,-465690480,442448782,250171815,1253135076,1261781288,-2110140711,-1732565375,
172,172531,1302101883,171342021,299024763,719251473,1259169355,1249377251,-2107615389,-1740309838,
173,173531,850000461,780580791,63420356,1163505109,1257321846,1239804712,-2108698406,-1746018596,
174,174531,276971890,1276460017,-231274445,1520538593,1248589035,1238270767,-2112805410,-1746585924,
175,175531,-336503542,1589334969,-543670632,1740207603,1237689153,1245611013,-2117717492,-1741702599,
176,176531,-904265023,1675263141,-829893103,1791660459,1230533921,1257829314,-2120769138,-1734026993,
177,177531,-1346572242,1522176488,-1049742760,1667670546,1231017656,1268296330,-2120299758,-1727722603,
178,178531,-1601304321,1151575317,-1172342338,1385651986,1238876919,1271354261,-2116564515,-1726195931,
179,179531,-1632685098,615509526,-1180473162,985213436,1249835598,1265354430,-2111595761,-1730270719,
180,180531,-1436306979,-10732018,-1072993219,522595284,1257952573,1253534011,-2108086396,-1737747782,
181,181531,-1039750907,-639195569,-864997787,62770883,1258843684,1242289416,-2107931292,-1744579790,
182,182531,-498711925,-1181615240,-585699165,-329678793,1252029014,1237730012,-2111213967,-1747054402,
183,183531,110822681,-1561809916,-274324055,-599635361,1241186400,1242339638,-2116162655,-1743822790,
184,184531,703245539,-1726382181,25395857,-709184239,1232189005,1253607612,-2120095845,-1736645654,
185,185531,1195352669,-1652218564,271365762,-642939540,1229928775,1265411147,-2120874619,-1729421206,
186,186531,1518029106,-1349735079,429040014,-410205229,1235637765,1271363353,-2118074340,-1726057795,
187,187531,1625955803,-861414491,476273607,-43668109,1246206631,1268253035,-2113220016,-1728370193,
188,188531,1503974828,-255840154,406432816,405192796,1255898512,1257757012,-2108945976,-1735110955,
