Simulink,Paulo,1999
6,6A,0D
1,Va,A,BarraEntrada,V,1,0,0,-494850.281433,524959.804405,1,1,P
2,Vb,B,BarraEntrada,V,1,0,0,-539301.557799,558764.217194,1,1,P
3,Vc,C,BarraEntrada,V,1,0,0,-503217.553936,524735.691460,1,1,P
4,Ia,A,LinhaEntrada,A,1,0,0,-2286.475200,2891.455181,1,1,P
5,Ib,B,LinhaEntrada,A,1,0,0,-2348.104334,2410.753037,1,1,P
6,Ic,C,LinhaEntrada,A,1,0,0,-2971.147701,2364.987441,1,1,P
60
1
1000,2001
01/01/2026,00:00:00.000000
01/01/2026,00:00:00.000000
ASCII
1
1,0,26145.225315,-326522.563101,300377.337956,184.249697,-1677.520848,1493.271152
2,1000,157547.170401,-361869.657383,204322.487101,845.201143,-1837.943898,992.742755
3,2000,266819.866467,-346405.612641,79585.746139,1387.462806,-1740.245048,352.782242
4,3000,338626.379891,-282321.173305,-56305.206857,1734.858100,-1398.057689,-336.800411
5,4000,362882.371192,-178544.595900,-184337.775559,1838.559700,-859.489357,-979.070344
6,5000,336162.924234,-49670.142404,-286492.782126,1684.011295,-200.269062,-1483.742233
7,6000,262222.425300,86146.264888,-348368.690595,1292.956679,487.031436,-1779.988116
8,7000,151461.325523,209849.153135,-361310.479037,720.321802,1105.988154,-1826.309957
9,8000,19436.739399,304089.876388,-323526.616022,46.494301,1569.669137,-1616.163439
10,9000,-115322.340810,355653.315194,-240330.974499,-633.899501,1812.856205,-1178.956705
11,10000,-233896.594197,357250.015248,-123353.421080,-1225.267774,1801.370260,-576.102487
12,11000,-319617.626623,308649.231684,10968.395037,-1644.535504,1536.905934,107.629569
13,12000,-360438.160254,216704.466275,143733.694268,-1832.843805,1056.660822,776.182982
14,13000,-350634.936302,94348.879134,256286.057472,-1763.770518,428.008743,1335.761775
15,14000,-291596.944989,-41250.725812,332847.671092,-1446.996084,-260.822078,1707.818162
16,15000,-191609.955449,-171091.961907,362701.917740,-926.981468,-913.035356,1840.016825
17,16000,-64701.938842,-276907.726271,341609.665386,-276.773450,-1436.953682,1713.727133
18,17000,71299.088620,-343807.980099,272508.891621,412.276607,-1759.024745,1346.748139
19,18000,197279.421896,-362405.848865,165126.427016,1043.398260,-1834.099369,790.701110
20,19000,295544.816785,-330124.046166,34579.229293,1527.985205,-1651.619013,123.633808
21,20000,352307.009699,-251501.245951,-100805.763949,1797.982341,-1237.131569,-560.850772
22,21000,359597.313915,-137538.958898,-222058.355353,1815.439128,-648.841127,-1166.598001
23,22000,316379.408250,-4238.800554,-312140.608035,1577.892275,30.549320,-1608.441595
24,23000,228718.021635,129651.160608,-358369.182565,1118.731581,705.592122,-1824.323704
25,24000,108934.912473,245307.244634,-354242.157452,502.463025,1281.552182,-1784.015207
26,25000,-26137.934982,326512.443909,-300374.509131,-184.381788,1677.581746,-1493.199959
27,26000,-157538.516643,361885.061524,-204346.544949,-845.359867,1838.003017,-992.643151
28,27000,-266822.747503,346432.783707,-79610.036174,-1387.623428,1740.225226,-352.601800
29,28000,-338636.264101,282303.848973,56332.415294,-1734.987182,1398.022257,336.964924
30,29000,-362881.635749,178516.511813,184365.124215,-1838.673614,859.523644,979.149969
31,30000,-336155.319518,49678.889258,286476.430613,-1684.147405,200.336214,1483.811191
32,31000,-262223.048371,-86121.768283,348344.816995,-1293.109115,-487.029458,1780.138573
33,32000,-151469.337492,-209844.680578,361314.018380,-720.451587,-1106.030876,1826.482464
34,33000,-19438.220649,-304113.321552,323551.542470,-46.597749,-1569.660067,1616.257817
35,34000,115330.382071,-355659.785713,240329.403768,633.786180,-1812.789785,1179.003606
36,35000,233899.059054,-357232.917890,123333.858816,1225.131225,-1801.339260,576.208036
37,36000,319609.311981,-308639.704279,-10969.607819,1644.406899,-1536.944332,-107.462566
38,37000,360431.900490,-216719.939167,-143711.961560,1832.743833,-1056.681205,-776.062628
39,38000,350640.829981,-94362.173193,-256278.657125,1763.673618,-427.958968,-1335.714649
40,39000,291604.796803,41268.121840,-332872.919000,1446.876682,260.873657,-1707.750339
41,40000,191606.140074,171107.364131,-362713.504533,926.858056,913.019679,-1839.877735
42,41000,64693.312148,276895.704676,-341589.017097,276.675479,1436.918702,-1713.594182
43,42000,-71298.909253,343786.859464,-272487.950395,-412.360545,1759.049851,-1346.689307
44,43000,-197272.188271,362410.792091,-165138.603860,-1043.500237,1834.155269,-790.655032
45,44000,-295544.030769,330147.779395,-34603.748521,-1528.101784,1651.624786,-123.523002
46,45000,-352313.960443,251503.128627,100810.832012,-1798.081293,1237.094607,560.986685
47,46000,-359599.448221,137519.063503,222080.385015,-1815.515267,648.843738,1166.671528
48,47000,-316373.490487,4230.215920,312143.274932,-1577.976089,-30.495217,1608.471306
49,48000,-228715.185017,-129634.771612,358349.956975,-1118.836102,-705.565671,1824.401773
50,49000,-108941.272203,-245296.497914,354237.770412,-502.562140,-1281.583493,1784.145634
51,50000,26132.849816,-326525.591302,300392.741700,184.307102,-1677.601814,1493.294713
52,51000,157543.298794,-361896.358788,204353.060089,845.289306,-1837.962946,992.673641
53,52000,266829.006974,-346422.361932,79593.354910,1387.533522,-1740.180805,352.647284
54,53000,338633.175851,-282289.469281,-56343.706750,1734.891975,-1398.035264,-336.856711
55,54000,362874.024876,-178525.136650,-184348.888490,1838.599025,-859.555855,-979.043169
56,55000,336155.541819,-49696.046617,-286459.495540,1684.085790,-200.318843,-1483.766948
57,56000,262229.696391,86126.042345,-348355.739102,1293.033239,487.077596,-1780.110835
58,57000,151470.527197,209863.433956,-361333.961469,720.362270,1106.038067,-1826.400337
59,58000,19432.162047,304115.578109,-323547.740396,46.522092,1569.628015,-1616.150108
60,59000,-115333.096779,355641.700181,-240308.603539,-633.842330,1812.788016,-1178.945686
61,60000,-233894.230328,357225.658143,-123331.427816,-1225.193068,1801.382569,-576.189501
62,61000,-319606.329422,308654.090175,10952.239384,-1644.486752,1536.968413,107.518338
63,62000,-360436.559353,216730.463458,143706.096142,-1832.820337,1056.655562,776.164775
64,63000,-350645.226693,94351.806638,256293.420371,-1763.729303,427.940017,1335.789286
65,64000,-291601.308349,-41280.057197,332881.365903,-1446.927883,-260.842176,1707.770059
66,65000,-191600.941625,-171099.543703,362700.485675,-926.925750,-912.981848,1839.907598
67,66000,-64695.778527,-276883.117868,341578.896665,-276.749179,-1436.928892,1713.678071
68,67000,71292.607701,-343792.184068,272499.576535,412.303623,-1759.079095,1346.775473
69,68000,197272.343892,-362424.827969,165152.484128,1043.455346,-1834.142993,790.687648
70,69000,295549.878259,-330145.471811,34595.593463,1528.045576,-1651.583910,123.538334
71,70000,352315.235219,-251487.750584,-100827.484849,1798.012814,-1237.086633,-560.926181
72,71000,359594.086625,-137517.205745,-222076.881180,1815.457094,-648.871619,-1166.585474
73,72000,316370.716746,-4245.008632,-312125.708460,1577.934650,30.490320,-1608.424970
74,73000,228719.188255,129628.286524,-358347.475131,1118.790711,705.600769,-1824.391481
75,74000,108944.402685,245308.956111,-354253.359100,502.501232,1281.605358,-1784.106591
76,75000,-26136.354334,326535.370292,-300399.016162,-184.366203,1677.581274,-1493.215072
77,76000,-157547.287642,361887.413668,-204340.126113,-845.330900,1837.944946,-992.614047
78,77000,-266826.549338,346411.216784,-79584.667406,-1387.570501,1740.205123,-352.634623
79,78000,-338628.826854,282295.094953,56333.732075,-1734.942940,1398.067452,336.875488
80,79000,-362875.734998,178536.799560,184338.935716,-1838.656200,859.548193,979.108007
81,80000,-336160.723635,49692.912695,286467.811277,-1684.129287,200.293054,1483.836233
82,81000,-262229.666921,-86137.979031,348367.646306,-1293.065726,-487.069340,1780.135067
83,82000,-151465.583819,-209862.662885,361328.247029,-720.403694,-1106.003505,1826.407200
84,83000,-19430.952236,-304103.270056,323534.222537,-46.574716,-1569.619930,1616.194647
85,84000,115328.489526,-355639.407551,240310.918154,633.797371,-1812.812147,1179.014777
86,85000,233891.594667,-357237.690381,123346.095713,1225.162493,-1801.389275,576.226783
87,86000,319609.745422,-308659.730814,-10950.014736,1644.453681,-1536.939920,-107.513760
88,87000,360439.624986,-216720.108359,-143719.516873,1832.773988,-1056.635607,-776.138380
89,88000,350642.518576,-94343.231161,-256299.287740,1763.683530,-427.956483,-1335.727047
90,89000,291597.639955,41272.598831,-332870.239140,1446.896726,260.825235,-1707.721961
91,90000,191602.615050,171089.347381,-362691.962769,926.899167,913.000314,-1839.899481
92,91000,64699.542535,276887.500746,-341587.043557,276.710877,1436.956324,-1713.667202
93,92000,-71293.668169,343802.747947,-272509.079949,-412.348034,1759.073783,-1346.725750
94,93000,-197276.594572,362423.139980,-165146.545450,-1043.488646,1834.120499,-790.631855
95,94000,-295550.060386,330135.114857,-34585.054382,-1528.068921,1651.589087,-123.520167
96,95000,-352311.159528,251487.267371,100823.892364,-1798.043210,1237.115565,560.927644
97,96000,-359592.935043,137527.325700,222065.609646,-1815.497616,648.879536,1166.618080
98,97000,-316374.577397,4247.692919,312126.884830,-1577.969567,-30.510981,1608.480548
99,98000,-228721.560272,-129637.853070,358359.413690,-1118.813238,-705.608389,1824.421628
100,99000,-108941.519212,-245314.079991,354255.599504,-502.525099,-1281.582171,1784.107270
101,100000,26139.215621,-326527.051369,300387.835959,184.330999,-1677.563237,1493.232239
102,101000,157545.140949,-361879.968173,204334.827312,845.295330,-1837.958106,992.662776
103,102000,266823.200590,-346417.319207,79594.118570,1387.547055,-1740.220929,352.673874
104,103000,338629.965804,-282304.031468,-56325.934508,1734.923961,-1398.053611,-336.870349
105,104000,362879.044644,-178533.402466,-184345.642452,1838.627508,-859.524719,-979.102789
106,105000,336160.177149,-49683.502178,-286476.675312,1684.094763,-200.296378,-1483.798386
107,106000,262226.132750,86137.152156,-348363.285262,1293.040163,487.049883,-1780.090046
108,107000,151465.183062,209853.604873,-361318.788256,720.387024,1106.006244,-1826.393268
109,108000,19434.275433,304102.025527,-323536.301204,46.552525,1569.643989,-1616.196515
110,109000,-115327.364895,355647.832554,-240320.467791,-633.828627,1812.819770,-1178.991144
111,110000,-233894.744601,357240.735269,-123345.990667,-1225.189720,1801.371806,-576.182087
112,111000,-319611.848221,308652.091772,10959.756581,-1644.470244,1536.932004,107.538239
113,112000,-360437.239704,216715.333859,143721.906088,-1832.791020,1056.654409,776.136611
114,113000,-350639.946801,94349.752801,256290.194323,-1763.710226,427.972631,1335.737595
115,114000,-291599.351901,-41266.129925,332865.482183,-1446.924480,-260.835730,1707.760210
116,115000,-191605.612865,-171094.131497,362699.744701,-926.916900,-913.014859,1839.931759
117,116000,-64698.764979,-276895.205626,341593.970879,-276.724298,-1436.946073,1713.670371
118,117000,71296.592635,-343800.161272,272503.568809,412.326643,-1759.053651,1346.727008
119,118000,197276.404443,-362414.960674,165138.556276,1043.461786,-1834.122225,790.660440
120,119000,295547.084629,-330135.407092,34588.322372,1528.049215,-1651.605865,123.556651
121,120000,352310.579616,-251495.128258,-100815.451568,1798.031375,-1237.114699,-560.916675
122,121000,359595.644751,-137528.977514,-222066.667537,1815.481514,-648.859629,-1166.621885
123,122000,316375.699661,-4240.588772,-312135.111240,1577.945438,30.518276,-1608.463714
124,123000,228719.034352,129641.061766,-358360.096470,1118.791931,705.593801,-1824.385733
125,124000,108939.654142,245307.938415,-354247.592858,502.512943,1281.574324,-1784.087268
126,125000,-26137.296760,326522.545759,-300385.249207,-184.342996,1677.578383,-1493.235387
127,126000,-157542.877376,361885.011086,-204342.133798,-845.315548,1837.972422,-992.656875
128,127000,-266824.547600,346423.007549,-79598.459905,-1387.568802,1740.212626,-352.643825
129,128000,-338632.595819,282300.416061,56332.179931,-1734.937443,1398.040415,336.897028
130,129000,-362878.517583,178526.816791,184351.701067,-1838.636873,859.532209,979.104663
131,130000,-336157.612780,49685.354736,286472.258383,-1684.110615,200.313645,1483.796971
132,131000,-262226.093287,-86130.166816,348356.260459,-1293.061084,-487.050400,1780.111484
133,132000,-151467.709023,-209853.530881,361321.240228,-720.402298,-1106.020674,1826.422972
134,133000,-19434.970209,-304108.755973,323543.726425,-46.560876,-1569.644514,1616.205390
135,134000,115329.587627,-355649.642030,240320.054534,633.817043,-1812.803344,1178.986302
136,135000,233895.862997,-357234.744283,123338.881285,1225.171096,-1801.364863,576.193768
137,136000,319609.842023,-308648.895141,-10960.947013,1644.453512,-1536.944060,-107.509452
138,137000,360435.570448,-216720.317621,-143715.253071,1832.782106,-1056.661974,-776.120132
139,138000,350641.450953,-94353.980075,-256287.471201,1763.701905,-427.960542,-1335.741363
140,139000,291601.326549,41270.013415,-332871.340319,1446.909191,260.848332,-1707.757523
141,140000,191604.583513,171099.178703,-362703.762556,926.899794,913.008381,-1839.908175
142,141000,64696.494754,276892.570184,-341589.065213,276.713993,1436.934261,-1713.648255
143,142000,-71296.253340,343794.524135,-272498.270966,-412.333062,1759.059017,-1346.725956
144,143000,-197274.184119,362416.170347,-165141.986273,-1043.473451,1834.136997,-790.663548
145,144000,-295546.905582,330141.305049,-34594.399379,-1528.065535,1651.606223,-123.540689
146,145000,-352312.724230,251495.485742,100817.238698,-1798.043292,1237.102328,560.940963
147,146000,-359596.391664,137523.301090,222073.090876,-1815.487367,648.858131,1166.629236
148,147000,-316373.865514,4238.753615,312135.112250,-1577.953677,-30.504744,1608.458421
149,148000,-228717.938605,-129636.043951,358353.982906,-1118.806295,-705.587239,1824.393534
150,149000,-108941.243586,-245304.889910,354246.133797,-502.526130,-1281.584203,1784.110334
151,150000,26135.792356,-326526.603461,300390.811315,184.336452,-1677.585549,1493.249097
152,151000,157544.031081,-361888.918391,204344.887397,845.309889,-1837.962869,992.652982
153,152000,266826.268779,-346420.015905,79593.747081,1387.557265,-1740.201588,352.644324
154,153000,338631.840175,-282295.923059,-56335.917287,1734.923944,-1398.045370,-336.878573
155,154000,362876.577538,-178528.679423,-184347.898390,1838.628954,-859.542660,-979.086294
156,155000,336157.801952,-49690.198636,-286467.603655,1684.106318,-200.309918,-1483.796399
157,156000,262227.990031,86130.840993,-348358.831380,1293.052571,487.062986,-1780.115557
158,157000,151467.971958,209858.487239,-361326.459519,720.389545,1106.021642,-1826.411187
159,158000,19433.160043,304109.343270,-323542.503557,46.551515,1569.633954,-1616.185470
160,159000,-115330.338527,355644.913019,-240314.574623,-633.821110,1812.801211,-1178.980102
161,160000,-233894.346501,357232.945613,-123338.599111,-1225.176861,1801.375992,-576.199131
162,161000,-319608.793865,308653.048672,10955.745324,-1644.464576,1536.950206,107.514369
163,162000,-360436.830385,216723.143525,143713.687104,-1832.792542,1056.653933,776.138608
164,163000,-350642.808458,94350.688200,256292.120581,-1763.706726,427.953846,1335.752880
165,164000,-291600.456097,-41273.562002,332874.018455,-1446.912941,-260.840861,1707.753802
166,165000,-191603.080216,-171096.875532,362699.956086,-926.908472,-912.998742,1839.907215
167,166000,-64697.022735,-276888.584691,341585.607700,-276.724676,-1436.937954,1713.662630
168,167000,71294.603120,-343795.800050,272501.197102,412.326940,-1759.068181,1346.741242
169,168000,197274.250359,-362420.345455,165146.095140,1043.470663,-1834.134541,790.663879
170,169000,295548.508185,-330141.047272,34592.538998,1528.059382,-1651.595550,123.536169
171,170000,352313.038372,-251491.323456,-100821.715126,1798.033308,-1237.100948,-560.932359
172,171000,359594.877901,-137522.535335,-222072.342867,1815.479963,-648.867092,-1166.612871
173,172000,316373.140964,-4242.660311,-312130.481003,1577.950880,30.502237,-1608.453117
174,173000,228719.188249,129634.306836,-358353.495435,1118.802347,705.596369,-1824.398716
175,174000,108942.222887,245308.285012,-354250.508200,502.517622,1281.589901,-1784.107523
176,175000,-26136.790906,326529.179096,-300392.388399,-184.344747,1677.579044,-1493.234298
177,176000,-157545.250333,361886.274743,-204341.024499,-845.313460,1837.956687,-992.643227
178,177000,-266825.620664,346416.843005,-79591.222296,-1387.559656,1740.207368,-352.647713
179,178000,-338630.525662,282297.684315,56332.841520,-1734.930442,1398.053767,336.876675
180,179000,-362876.924105,178532.187615,184344.736766,-1838.637427,859.540000,979.097426
181,180000,-336159.204045,49689.358652,286469.845732,-1684.111084,200.301939,1483.809145
182,181000,-262228.022128,-86134.438772,348362.461256,-1293.054300,-487.061509,1780.115809
183,182000,-151466.628094,-209858.532792,361325.161208,-720.393940,-1106.012632,1826.406573
184,183000,-19432.814469,-304105.845251,323538.659964,-46.559342,-1569.632309,1616.191652
185,184000,115329.085125,-355644.023676,240314.938682,633.815214,-1812.808764,1178.993551
186,185000,233893.664006,-357236.157758,123342.493751,1225.174963,-1801.378681,576.203718
187,186000,319609.815541,-308654.711207,-10955.104465,1644.461954,-1536.942744,-107.519209
188,187000,360437.727603,-216720.399780,-143717.328067,1832.786010,-1056.648707,-776.137303
189,188000,350642.020215,-94348.361287,-256293.659251,1763.700102,-427.959073,-1335.741028
190,189000,291599.370004,41271.469230,-332870.839590,1446.910273,260.835216,-1707.745489
191,190000,191603.556208,171094.071654,-362697.628201,926.907037,913.003164,-1839.910202
192,191000,64698.170381,276889.910467,-341588.081123,276.719840,1436.945251,-1713.665092
193,192000,-71294.810856,343798.859713,-272504.049029,-412.333674,1759.066349,-1346.732676
194,193000,-197275.441608,362419.828482,-165144.386919,-1043.474405,1834.127632,-790.653228
195,194000,-295548.614746,330137.957960,-34589.343125,-1528.060382,1651.596281,-123.535900
196,195000,-352311.916517,251491.070252,100820.846476,-1798.036399,1237.108521,560.927877
197,196000,-359594.514818,137525.474652,222069.040468,-1815.486103,648.868894,1166.617209
198,197000,-316374.169681,4243.619032,312130.550999,-1577.955604,-30.508562,1608.464165
199,198000,-228719.822401,-129636.941283,358356.764034,-1118.803616,-705.599104,1824.402721
200,199000,-108941.396422,-245309.861554,354251.258277,-502.519287,-1281.583833,1784.103121
201,200000,26137.601106,-326526.981971,300389.381074,184.339744,-1677.574296,1493.234553
202,201000,157544.633763,-361884.182292,204339.548617,845.308146,-1837.960854,992.652709
203,202000,266824.662180,-346418.472456,79593.810231,1387.557643,-1740.212471,352.654829
204,203000,338630.868482,-282300.142890,-56330.725764,1734.929671,-1398.050429,-336.879242
205,204000,362877.921783,-178531.215795,-184346.706263,1838.633857,-859.533677,-979.100180
206,205000,336159.099119,-49686.713127,-286472.386331,1684.105723,-200.303119,-1483.802603
207,206000,262227.010749,86134.162880,-348361.173984,1293.051335,487.055554,-1780.106890
208,207000,151466.469381,209855.895517,-361322.365221,720.393430,1106.012807,-1826.406238
209,208000,19433.748523,304105.458018,-323539.206785,46.557213,1569.638651,-1616.195865
210,209000,-115328.716009,355646.488127,-240317.772248,-633.820033,1812.810642,-1178.990610
211,210000,-233894.502407,357237.138489,-123342.636081,-1225.178770,1801.373420,-576.194650
212,211000,-319610.399895,308652.554920,10957.845106,-1644.462789,1536.940054,107.522734
213,212000,-360437.066818,216718.921288,143718.145774,-1832.786996,1056.653611,776.133384
214,213000,-350641.295782,94350.107940,256291.188165,-1763.703924,427.963351,1335.740573
215,214000,-291599.845382,-41269.594086,332869.439824,-1446.914555,-260.838505,1707.753060
216,215000,-191604.394824,-171095.318350,362699.713513,-926.908574,-913.007732,1839.916307
217,216000,-64697.931247,-276892.055899,341589.987421,-276.720160,-1436.942773,1713.662934
218,217000,71295.672933,-343798.174903,272502.502141,412.331065,-1759.060889,1346.729825
