ozeni,ScopeView,2013
4,4A,0D
1,Vmeas2.a,,,V,2.2476969752460718E-4,-10820.96875,0.0,-2147483648,2147483647,1.0,1.0,S
2,Vmeas2.b,,,V,2.174661130993627E-4,6491.453125,0.0,-2147483648,2147483647,1.0,1.0,S
3,Imeas1.a,,,A,2.084789571199508E-6,764.016357421875,0.0,-2147483648,2147483647,1.0,1.0,S
4,Imeas1.b,,,A,1.3593217431662197E-6,-769.3255615234375,0.0,-2147483648,2147483647,1.0,1.0,S
60.0
1
1000.0,1001
27/04/2026,19:49:06.743982
27/04/2026,19:49:06.743982
ASCII
1.0
0,-4h
0,3
1,1530,932514838,-1703594374,128106899,-768601233,
2,2530,1370795740,-1553241639,358142083,-636094515,
3,3530,1623313931,-1188933155,486407367,-334762397,
4,4530,1654604014,-661834940,494888334,93073914,
5,5530,1460271213,-45976371,382393900,587326035,
6,6530,1067609227,572147008,164723433,1078577771,
7,7530,531766138,1105721699,-127551731,1497834274,
8,8530,-72000433,1479808646,-453382522,1786212131,
9,9530,-658893310,1641868378,-767006953,1903209710,
10,10530,-1146485171,1569140236,-1024377404,1832394885,
11,11530,-1466295017,1271838600,-1189346935,1583713447,
12,12530,-1573406737,791718610,-1238746077,1192091962,
13,13530,-1452776597,196211730,-1165636906,712532450,
14,14530,-1121346801,-431044923,-980287304,212387721,
15,15530,-625665827,-1001955029,-708729183,-238098498,
16,16530,-35350446,-1436335925,-389101981,-575656622,
17,17530,566691262,-1673180153,-66296433,-752877736,
18,18530,1095904370,-1679223480,214350405,-744871585,
19,19530,1477962376,-1453617353,413422504,-552762676,
20,20530,1659206503,-1028047384,502960777,-203532040,
21,21530,1614181389,-462283591,470389833,253771818,
22,22530,1349210868,164214127,320284229,754921974,
23,23530,901509074,763456089,73725732,1229533398,
24,24530,333954481,1251280512,-234657167,1610948260,
25,25530,-273741547,1559173885,-561553005,1845598078,
26,26530,-836229895,1643893550,-861050279,1900526864,
27,27530,-1274510797,1493540814,-1091085463,1768020147,
28,28530,-1527028988,1129232330,-1219350747,1466688029,
29,29530,-1558319071,602134115,-1227831714,1038851718,
30,30530,-1363986270,-13724453,-1115337280,544599597,
31,31530,-971324284,-631847832,-897666813,53347861,
32,32530,-435481195,-1165422523,-605391649,-365908642,
33,33530,168285376,-1539509470,-279560858,-654286499,
34,34530,755178253,-1701569202,34063573,-771284078,
35,35530,1242770113,-1628841061,291434024,-700469253,
36,36530,1562579960,-1331539425,456403555,-451787815,
37,37530,1669691679,-851419434,505802697,-60166330,
38,38530,1549061540,-255912555,432693526,419393182,
39,39530,1217631744,371344099,247343924,919537911,
40,40530,721950770,942254204,-24214197,1370024130,
41,41530,131635389,1376635100,-343841399,1707582254,
42,42530,-470406319,1613479328,-666646947,1884803368,
43,43530,-999619427,1619522655,-947293785,1876797217,
44,44530,-1381677433,1393916528,-1146365884,1684688308,
45,45530,-1562921560,968346560,-1235904157,1335457672,
46,46530,-1517896446,402582766,-1203333213,878153814,
47,47530,-1252925925,-223914951,-1053227609,377003657,
48,48530,-805224131,-823156913,-806669112,-97607766,
49,49530,-237669538,-1310981337,-498286213,-479022628,
50,50530,370026490,-1618874709,-171390375,-713672446,
51,51530,932514838,-1703594374,128106899,-768601233,
52,52530,1370795740,-1553241639,358142083,-636094515,
53,53530,1623313931,-1188933155,486407367,-334762397,
54,54530,1654604014,-661834940,494888334,93073914,
55,55530,1460271213,-45976371,382393900,587326035,
56,56530,1067609227,572147008,164723433,1078577771,
57,57530,531766138,1105721699,-127551731,1497834274,
58,58530,-72000433,1479808646,-453382522,1786212131,
59,59530,-658893310,1641868378,-767006953,1903209710,
60,60530,-1146485171,1569140236,-1024377404,1832394885,
61,61530,-1466295017,1271838600,-1189346935,1583713447,
62,62530,-1573406737,791718610,-1238746077,1192091962,
63,63530,-1452776597,196211730,-1165636906,712532450,
64,64530,-1121346801,-431044923,-980287304,212387721,
65,65530,-625665827,-1001955029,-708729183,-238098498,
66,66530,-35350446,-1436335925,-389101981,-575656622,
67,67530,566691262,-1673180153,-66296433,-752877736,
68,68530,1095904370,-1679223480,214350405,-744871585,
69,69530,1477962376,-1453617353,413422504,-552762676,
70,70530,1659206503,-1028047384,502960777,-203532040,
71,71530,1614181389,-462283591,470389833,253771818,
72,72530,1349210868,164214127,320284229,754921974,
73,73530,901509074,763456089,73725732,1229533398,
74,74530,333954481,1251280512,-234657167,1610948260,
75,75530,-273741547,1559173885,-561553005,1845598078,
76,76530,-836229895,1643893550,-861050279,1900526864,
77,77530,-1274510797,1493540814,-1091085463,1768020147,
78,78530,-1527028988,1129232330,-1219350747,1466688029,
79,79530,-1558319071,602134115,-1227831714,1038851718,
80,80530,-1363986270,-13724453,-1115337280,544599597,
81,81530,-971324284,-631847832,-897666813,53347861,
82,82530,-435481195,-1165422523,-605391649,-365908642,
83,83530,168285376,-1539509470,-279560858,-654286499,
84,84530,755178253,-1701569202,34063573,-771284078,
85,85530,1242770113,-1628841061,291434024,-700469253,
86,86530,1562579960,-1331539425,456403555,-451787815,
87,87530,1669691679,-851419434,505802697,-60166330,
88,88530,1549061540,-255912555,432693526,419393182,
89,89530,1217631744,371344099,247343924,919537911,
90,90530,721950770,942254204,-24214197,1370024130,
91,91530,131635389,1376635100,-343841399,1707582254,
92,92530,-470406319,1613479328,-666646947,1884803368,
93,93530,-999619427,1619522655,-947293785,1876797217,
94,94530,-1381677433,1393916528,-1146365884,1684688308,
95,95530,-1562921560,968346560,-1235904157,1335457672,
96,96530,-1517896446,402582766,-1203333213,878153814,
97,97530,-1252925925,-223914951,-1053227609,377003657,
98,98530,-805224131,-823156913,-806669112,-97607766,
99,99530,-237669538,-1310981337,-498286213,-479022628,
100,100530,370026490,-1618874709,-171390375,-713672446,
101,101530,932514838,-1703594374,128106899,-768601233,
102,102530,1370795740,-1553241639,358142083,-636094515,
103,103530,1623313931,-1188933155,486407367,-334762397,
104,104530,1654604014,-661834940,494888334,93073914,
105,105530,1460271213,-45976371,382393900,587326035,
106,106530,1067609227,572147008,164723433,1078577771,
107,107530,531766138,1105721699,-127551731,1497834274,
108,108530,-72000433,1479808646,-453382522,1786212131,
109,109530,-658893310,1641868378,-767006953,1903209710,
110,110530,-1146485171,1569140236,-1024377404,1832394885,
111,111530,-1466295017,1271838600,-1189346935,1583713447,
112,112530,-1573406737,791718610,-1238746077,1192091962,
113,113530,-1452776597,196211730,-1165636906,712532450,
114,114530,-1121346801,-431044923,-980287304,212387721,
115,115530,-625665827,-1001955029,-708729183,-238098498,
116,116530,-35350446,-1436335925,-389101981,-575656622,
117,117530,566691262,-1673180153,-66296433,-752877736,
118,118530,1095904370,-1679223480,214350405,-744871585,
119,119530,1477962376,-1453617353,413422504,-552762676,
120,120530,1659206503,-1028047384,502960777,-203532040,
121,121530,1614181389,-462283591,470389833,253771818,
122,122530,1349210868,164214127,320284229,754921974,
123,123530,901509074,763456089,73725732,1229533398,
124,124530,333954481,1251280512,-234657167,1610948260,
125,125530,-273741547,1559173885,-561553005,1845598078,
126,126530,-836229895,1643893550,-861050279,1900526864,
127,127530,-1274510797,1493540814,-1091085463,1768020147,
128,128530,-1527028988,1129232330,-1219350747,1466688029,
129,129530,-1558319071,602134115,-1227831714,1038851718,
130,130530,-1363986270,-13724453,-1115337280,544599597,
131,131530,-971324284,-631847832,-897666813,53347861,
132,132530,-435481195,-1165422523,-605391649,-365908642,
133,133530,168285376,-1539509470,-279560858,-654286499,
134,134530,755178253,-1701569202,34063573,-771284078,
135,135530,1242770113,-1628841061,291434024,-700469253,
136,136530,1562579960,-1331539425,456403555,-451787815,
137,137530,1669691679,-851419434,505802697,-60166330,
138,138530,1549061540,-255912555,432693526,419393182,
139,139530,1217631744,371344099,247343924,919537911,
140,140530,721950770,942254204,-24214197,1370024130,
141,141530,131635389,1376635100,-343841399,1707582254,
142,142530,-470406319,1613479328,-666646947,1884803368,
143,143530,-999619427,1619522655,-947293785,1876797217,
144,144530,-1381677433,1393916528,-1146365884,1684688308,
145,145530,-1562921560,968346560,-1235904157,1335457672,
146,146530,-1517896446,402582766,-1203333213,878153814,
147,147530,-1252925925,-223914951,-1053227609,377003657,
148,148530,-805224131,-823156913,-806669112,-97607766,
149,149530,-237669538,-1310981337,-498286213,-479022628,
150,150530,370026490,-1618874709,-171390375,-713672446,
151,151530,932514838,-1703594374,128106899,-768601233,
152,152530,1370795740,-1553241639,358142083,-636094515,
153,153530,1623313931,-1188933155,486407367,-334762397,
154,154530,1654604014,-661834940,494888334,93073914,
155,155530,1460271213,-45976371,382393900,587326035,
156,156530,1067609227,572147008,164723433,1078577771,
157,157530,531766138,1105721699,-127551731,1497834274,
158,158530,-72000433,1479808646,-453382522,1786212131,
159,159530,-658893310,1641868378,-767006953,1903209710,
160,160530,-1146485171,1569140236,-1024377404,1832394885,
161,161530,-1466295017,1271838600,-1189346935,1583713447,
162,162530,-1573406737,791718610,-1238746077,1192091962,
163,163530,-1452776597,196211730,-1165636906,712532450,
164,164530,-1121346801,-431044923,-980287304,212387721,
165,165530,-625665827,-1001955029,-708729183,-238098498,
166,166530,-35350446,-1436335925,-389101981,-575656622,
167,167530,566691262,-1673180153,-66296433,-752877736,
168,168530,1095904370,-1679223480,214350405,-744871585,
169,169530,1477962376,-1453617353,413422504,-552762676,
170,170530,1659206503,-1028047384,502960777,-203532040,
171,171530,1614181389,-462283591,470389833,253771818,
172,172530,1349210868,164214127,320284229,754921974,
173,173530,901509074,763456089,73725732,1229533398,
174,174530,333954481,1251280512,-234657167,1610948260,
175,175530,-273741547,1559173885,-561553005,1845598078,
176,176530,-836229895,1643893550,-861050279,1900526864,
177,177530,-1274510797,1493540814,-1091085463,1768020147,
178,178530,-1527028988,1129232330,-1219350747,1466688029,
179,179530,-1558319071,602134115,-1227831714,1038851718,
180,180530,-1363986270,-13724453,-1115337280,544599597,
181,181530,-971324284,-631847832,-897666813,53347861,
182,182530,-435481195,-1165422523,-605391649,-365908642,
183,183530,168285376,-1539509470,-279560858,-654286499,
184,184530,755178253,-1701569202,34063573,-771284078,
185,185530,1242770113,-1628841061,291434024,-700469253,
186,186530,1562579960,-1331539425,456403555,-451787815,
187,187530,1669691679,-851419434,505802697,-60166330,
188,188530,1549061540,-255912555,432693526,419393182,
189,189530,1217631744,371344099,247343924,919537911,
190,190530,721950770,942254204,-24214197,1370024130,
191,191530,131635389,1376635100,-343841399,1707582254,
192,192530,-470406319,1613479328,-666646947,1884803368,
193,193530,-999619427,1619522655,-947293785,1876797217,
194,194530,-1381677433,1393916528,-1146365884,1684688308,
195,195530,-1562921560,968346560,-1235904157,1335457672,
196,196530,-1517896446,402582766,-1203333213,878153814,
197,197530,-1252925925,-223914951,-1053227609,377003657,
198,198530,-805224131,-823156913,-806669112,-97607766,
199,199530,-237669538,-1310981337,-498286213,-479022628,
200,200530,370026490,-1618874709,-171390375,-713672446,
201,201530,-96138630,-640295880,316000094,-1056805861,
202,202530,4814759,-141311519,981335693,-1591974456,
203,203530,581079635,-111908779,1542516829,-1954551520,
204,204530,415747802,618378025,1955851504,-2147483648,
205,205530,944621188,486929205,2147483647,-2119582411,
206,206530,658155750,995461488,2079030481,-1857211320,
207,207530,796577711,832134821,1791746213,-1445671490,
208,208530,590688081,794798472,1275014866,-864513754,
209,209530,234836899,718091334,657742703,-281791482,
210,210530,227298836,149325205,-29772588,307059197,
211,211530,-411830842,182139153,-649427968,755635971,
212,212530,-255975862,-569799516,-1138123228,1037675711,
213,213530,-779470548,-499666606,-1429772082,1117488823,
214,214530,-601540091,-968361433,-1459408242,947050259,
215,215530,-674594590,-951434155,-1268500337,620278651,
216,216530,-606830924,-845622123,-829275654,99317513,
217,217530,-175517762,-905998340,-261579082,-453504836,
218,218530,-245187111,-293178706,401790342,-1032473190,
219,219530,424645486,-365180387,1036131648,-1507836103,
220,220530,303967016,372539185,1558656563,-1822538087,
221,221530,793142598,386400719,1911794253,-1956754193,
222,222530,740737361,793192977,2006667624,-1831372485,
223,223530,741743807,928502565,1881557107,-1543025700,
224,224530,808513470,760651988,1495438135,-1042321277,
225,225530,322144511,943302356,953647000,-478056085,
226,226530,447643158,317145281,293822862,129413341,
227,227530,-219369783,403161556,-376394850,671871980,
228,228530,-157923764,-285889819,-955477010,1061912787,
229,229530,-588107175,-400688542,-1394214710,1293978003,
230,230530,-670843111,-730043052,-1583693867,1262824573,
231,231530,-601022061,-1014459851,-1555035305,1061384075,
232,232530,-790872983,-798059756,-1258122025,634980011,
233,233530,-275293309,-1081149336,-779038943,111596281,
234,234530,-432079554,-474594596,-161932791,-470776616,
235,235530,198572280,-549662003,505232802,-1028395085,
236,236530,216149038,60099144,1104489492,-1445735969,
237,237530,568728138,286470710,1593684032,-1728592237,
238,238530,787840782,530781260,1848547134,-1752000302,
239,239530,655383328,952341264,1889092387,-1598254695,
240,240530,949466495,707053623,1660300046,-1213305706,
241,241530,434085461,1064175642,1225013684,-698383503,
242,242530,596533196,510843707,634508123,-110678591,
243,243530,32886155,552391128,-44198598,491747147,
244,244530,-78288554,46716627,-680060638,969530530,
245,245530,-341785361,-293728073,-1235951702,1335535620,
246,246530,-689991530,-452899442,-1577665034,1452176056,
247,247530,-510042827,-991629929,-1710296310,1384550112,
248,248530,-884190097,-741625101,-1577654494,1084644685,
249,249530,-400012738,-1143325115,-1216559827,622458502,
250,250530,-543597102,-674575790,-685084294,74090591,
251,251530,-73121868,-664161092,-29262183,-527337021,
252,252530,139004772,-280130929,611229336,-1024328295,
253,253530,309515247,168794348,1201648180,-1431714765,
254,254530,771581015,250664503,1603400521,-1606924216,
255,255530,564418067,879975679,1803428203,-1591943564,
256,256530,990404022,651985345,1747590359,-1348908360,
257,257530,567753807,1068551540,1445127794,-914036438,
258,258530,671008975,711842444,959398175,-380431212,
259,259530,313363283,636964039,316640311,241340027,
260,260530,320093,383921058,-339935606,782744185,
261,261530,-81140553,-159656673,-975059006,1255057970,
262,262530,-634746094,-178333343,-1451330646,1518037382,
263,263530,-424464607,-866621228,-1735136876,1585822725,
264,264530,-872826591,-687951293,-1776642278,1433605644,
265,265530,-539307781,-1091221236,-1557337368,1063278052,
266,266530,-585528911,-867605649,-1143486257,581198095,
267,267530,-353000278,-722610573,-543747136,-20771243,
268,268530,52848537,-601312903,100763698,-570767332,
269,269530,56104830,15805031,751357071,-1071039536,
270,270530,673395098,-9194776,1276905185,-1390432078,
271,271530,485837773,703987700,1621845831,-1512104589,
272,272530,927417468,600161322,1742000438,-1425457696,
273,273530,705648459,965771159,1592350784,-1099430196,
274,274530,684362783,889050872,1238739050,-648596711,
275,275530,580958539,675900062,675218846,-51070517,
276,276530,97633115,678818117,35171216,526069752,
277,277530,155671988,15428670,-636718521,1071159018,
278,278530,-493869918,61401853,-1220029492,1467688337,
279,279530,-354583287,-642002252,-1637101301,1666479800,
280,280530,-763091492,-634691990,-1849665610,1670720807,
281,281530,-669472680,-943741649,-1788671955,1419708279,
282,282530,-577185719,-1018966947,-1515673522,1029998866,
283,283530,-598705662,-746862627,-1013668268,471456532,
284,284530,-59992074,-859131196,-402825999,-101323788,
285,285530,-158169831,-180945828,264236531,-658785508,
286,286530,490701710,-223676372,881204395,-1103285771,
287,287530,422771102,437320650,1349405289,-1353952919,
288,288530,776322117,542627790,1635766882,-1425653824,
289,289530,819399335,782864069,1650843063,-1232830537,
290,290530,659888912,1006411183,1447653645,-887174754,
291,291530,794524290,691616735,1001800372,-356068548,
292,292530,227365588,892357637,415387127,225375411,
293,293530,341829225,233018686,-249861828,807202668,
294,294530,-274200037,249286163,-904067515,1313113944,
295,295530,-296421706,-340540413,-1429955235,1633050150,
296,296530,-579231076,-567443366,-1798014995,1790094108,
297,297530,-759424891,-733954725,-1902856048,1679894478,
298,298530,-543613925,-1093608102,-1784715073,1402246208,
299,299530,-772945119,-757804921,-1415394788,927410256,
300,300530,-207584925,-1021850370,-874950953,365260202,
301,301530,-314247626,-414977621,-234332946,-212836374,
302,302530,239664653,-384251857,434113784,-752663827,
303,303530,364905380,111601906,998008843,-1119371889,
304,304530,568007018,461132154,1429105868,-1339626208,
305,305530,877316464,556531177,1611118018,-1297011571,
306,306530,622241176,1032509286,1567529892,-1072746140,
307,307530,922823738,701536456,1269471904,-644631218,
308,308530,390584094,1001672729,772072240,-93124248,
309,309530,466744133,478472715,154619676,489835552,
310,310530,-664904,384957570,-527977368,1071138004,
311,311530,-234631706,-1031554,-1132780986,1496944692,
312,312530,-356548667,-465897049,-1630067702,1792161897,
313,313530,-779376494,-499815516,-1897858681,1835402546,
314,314530,-507000477,-1066028230,-1939534355,1683449394,
315,315530,-852288485,-767664862,-1728059362,1325101034,
316,316530,-383428437,-1076537698,-1292046242,809017889,
317,317530,-410007343,-663753486,-717145887,245176744,
318,318530,-47306338,-497778704,-41983925,-351807784,
319,319530,293420804,-229430879,585152310,-816125365,
320,320530,339868642,335574841,1130132583,-1165353576,
321,321530,853812406,323600166,1470424838,-1279890391,
322,322530,589211743,949652196,1586839558,-1187464535,
323,323530,951551476,711671009,1455785696,-889958268,
324,324530,573096846,1004100909,1079107780,-403784318,
325,325530,536057267,722289689,545901133,147245397,
326,326530,288767396,481242220,-119408204,763146457,
327,327530,-148990592,330288564,-768830317,1273792271,
328,328530,-132190392,-312401762,-1361079317,1684026464,
329,329530,-709929160,-274675518,-1777728901,1882151593,
330,330530,-479457041,-927866402,-1975618000,1863882828,
331,331530,-832170184,-775612006,-1935304616,1644600890,
332,332530,-566146503,-1030368364,-1632964661,1209890387,
333,333530,-457841826,-892474466,-1157393781,691890949,
334,334530,-328889105,-581183114,-521553201,80777859,
335,335530,188862254,-539582236,132566165,-456852040,
336,336530,126417331,152791082,754157184,-908449474,
337,337530,737358694,112141466,1232858005,-1175199148,
338,338530,566331901,759677339,1501420360,-1219590435,
339,339530,885737514,714328032,1544240390,-1069327005,
340,340530,747578599,915819482,1314107657,-682373806,
341,341530,567293718,926428104,895237750,-192650687,
342,342530,551754202,557023854,292271797,414212068,
343,343530,-22839641,609968238,-364240506,982646570,
344,344530,63900824,-100115239,-1012314117,1479125387,
345,345530,-548583317,-79920130,-1552689093,1821264600,
346,346530,-459539675,-691190376,-1895176025,1939105513,
347,347530,-726662468,-767850236,-2026775717,1869967388,
348,348530,-724145864,-906984198,-1880257352,1548792808,
349,349530,-478448891,-1062131861,-1530685411,1104217515,
350,350530,-564301002,-653195878,-977584272,522654619,
