Simulink,Paulo,1999
6,6A,0D
1,Va,A,BarraEntrada,V,1,0,0,-480586.309462,484859.220972,1,1,P
2,Vb,B,BarraEntrada,V,1,0,0,-388648.342453,420048.403651,1,1,P
3,Vc,C,BarraEntrada,V,1,0,0,-440416.777468,406287.362138,1,1,P
4,Ia,A,LinhaEntrada,A,1,0,0,-3386.350668,5623.986183,1,1,P
5,Ib,B,LinhaEntrada,A,1,0,0,-2065.386062,2202.057997,1,1,P
6,Ic,C,LinhaEntrada,A,1,0,0,-1911.362695,1997.646600,1,1,P
60
1
1000,2001
01/01/2026,00:00:00.000000
01/01/2026,00:00:00.000000
ASCII
1
1,0,26115.913369,-326507.667591,300391.754381,184.255084,-1677.752857,1493.497774
2,1000,157519.814959,-361865.104798,204345.289946,845.303619,-1838.206621,992.903002
3,2000,266798.308762,-346412.037157,79613.728516,1387.647975,-1740.501584,352.853609
4,3000,338613.645351,-282337.659864,-56275.985342,1735.099962,-1398.272040,-336.827922
5,4000,362880.248846,-178568.847423,-184311.401331,1838.824298,-859.631440,-979.192858
6,5000,336171.716102,-49698.772716,-286472.943329,1684.261469,-200.318873,-1483.942595
7,6000,262240.900650,86117.297938,-348358.198575,1293.157276,487.080942,-1780.238217
8,7000,151486.882865,209823.948187,-361310.831075,720.444633,1106.129967,-1826.574600
9,8000,19465.780133,304071.954729,-323537.734936,46.522131,1569.883262,-1616.405392
10,9000,-115293.888018,355645.155347,-240351.267451,-633.970553,1813.112614,-1179.142061
11,10000,-233872.711422,357252.773675,-123380.062359,-1225.427741,1801.633053,-576.205312
12,11000,-319601.671095,308662.567574,10939.103411,-1644.761958,1537.138182,107.623776
13,12000,-360432.392703,216726.510208,143705.882385,-1833.104937,1056.829766,776.275171
14,13000,-350640.170168,94376.473605,256263.696507,-1764.029609,428.090642,1335.938967
15,14000,-291612.423089,-41221.471603,332833.894681,-1447.216733,-260.838574,1708.055307
16,15000,-191633.493149,-171065.086210,362698.579381,-927.132738,-913.147872,1840.280610
17,16000,-64730.250783,-276886.970940,341617.221791,-276.834122,-1437.146571,1713.980693
18,17000,71269.960964,-343796.328034,272526.367182,412.315106,-1759.271019,1346.955913
19,18000,197253.587023,-362404.994510,165151.407618,1043.530567,-1834.364295,790.833728
20,19000,295525.925569,-330134.052884,34608.127436,1528.192695,-1651.865236,123.672542
21,20000,352297.701593,-251520.629688,-100777.071796,1798.235809,-1237.324627,-560.911182
22,21000,359598.869040,-137565.032723,-222033.836224,1815.703007,-648.954097,-1166.748909
23,22000,316391.617006,-4267.995193,-312123.621777,1578.129579,30.532384,-1608.661962
24,23000,228739.202402,129622.958353,-358362.160770,1118.908971,705.673827,-1824.582798
25,24000,108962.088569,245284.095840,-354246.184452,502.555503,1281.721028,-1784.276530
26,25000,-26108.617832,326497.606033,-300388.988291,-184.387220,1677.813768,-1493.426548
27,26000,-157511.184655,361880.517069,-204369.332535,-845.462359,1838.265586,-992.803227
28,27000,-266801.201322,346439.141788,-79637.940589,-1387.808554,1740.481720,-352.673166
29,28000,-338623.508871,282320.318418,56303.190342,-1735.229023,1398.236761,336.992262
30,29000,-362879.496609,178540.836549,184338.659972,-1838.938259,859.665797,979.272462
31,30000,-336164.128096,49707.556523,286456.571515,-1684.397612,200.385877,1484.011735
32,31000,-262241.542166,-86092.871929,348334.414094,-1293.309665,-487.079062,1780.388727
33,32000,-151494.881038,-209819.535912,361314.416996,-720.574371,-1106.172551,1826.746922
34,33000,-19467.242623,-304095.345167,323562.587863,-46.625617,-1569.874064,1616.499681
35,34000,115301.915460,-355651.550399,240349.635053,633.857175,-1813.046323,1179.189148
36,35000,233875.153211,-357235.710990,123360.557909,1225.291222,-1801.602223,576.311000
37,36000,319593.369705,-308653.120111,-10940.249474,1644.633422,-1537.176480,-107.456942
38,37000,360426.163378,-216741.960123,-143684.203155,1833.004954,-1056.849946,-776.155008
39,38000,350646.056212,-94389.686281,-256256.369862,1763.932639,-428.040924,-1335.891714
40,39000,291620.237634,41238.851408,-332859.089016,1447.097336,260.889923,-1707.987259
41,40000,191629.673631,171080.397979,-362710.071637,927.009405,913.132197,-1840.141602
42,41000,64721.661698,276874.951398,-341596.613166,276.736168,1437.111824,-1713.847992
43,42000,-71269.765924,343775.311983,-272505.546155,-412.399118,1759.296175,-1346.897057
44,43000,-197246.385305,362409.964107,-165163.578924,-1043.632571,1834.419968,-790.787396
45,44000,-295525.162428,330157.678137,-34632.515837,-1528.309192,1651.870908,-123.561716
46,45000,-352304.627377,251522.449535,100782.177736,-1798.334704,1237.287876,561.046828
47,46000,-359600.977788,137545.229617,222055.748093,-1815.779209,648.956854,1166.822354
48,47000,-316385.720901,4259.501498,312126.219363,-1578.213461,-30.478473,1608.691933
49,48000,-228736.394897,-129606.633622,358343.028528,-1119.013434,-705.647575,1824.661009
50,49000,-108968.428814,-245273.450905,354241.879777,-502.654524,-1281.752186,1784.406710
51,50000,26103.568995,-326510.715304,300407.146402,184.312509,-1677.833591,1493.521081
52,51000,157515.953084,-361891.710626,204375.757656,845.391709,-1838.225616,992.833907
53,52000,266807.415909,-346428.741280,79621.325498,1387.718662,-1740.437582,352.718919
54,53000,338620.421808,-282306.047966,-56314.373723,1735.133922,-1398.249741,-336.884180
55,54000,362871.933777,-178549.455981,-184322.477708,1838.863689,-859.697716,-979.165973
56,55000,336164.364632,-49724.593141,-286439.771439,1684.335905,-200.368460,-1483.967444
57,56000,262248.146641,86097.168206,-348345.314838,1293.233761,487.126916,-1780.360677
58,57000,151496.044163,209838.162083,-361334.206286,720.485155,1106.179627,-1826.664782
59,58000,19461.218252,304097.540347,-323558.758682,46.550027,1569.842267,-1616.392294
60,59000,-115304.597470,355633.579995,-240328.982635,-633.913403,1813.044723,-1179.131320
61,60000,-233870.350560,357228.549916,-123358.199479,-1225.353142,1801.645306,-576.292164
62,61000,-319590.423315,308667.421575,10923.001617,-1644.713203,1537.200334,107.512869
63,62000,-360430.801725,216752.364071,143678.437552,-1833.081348,1056.824480,776.256868
64,63000,-350650.411778,94379.368627,256271.043087,-1763.988356,428.022248,1335.966107
65,64000,-291616.763480,-41250.661458,332867.424916,-1447.148642,-260.858559,1708.007201
66,65000,-191624.523498,-171072.598208,362697.121728,-927.077082,-913.094681,1840.171762
67,66000,-64724.125229,-276862.489659,341586.614958,-276.809746,-1437.121978,1713.931724
68,67000,71263.517166,-343780.637510,272517.120448,412.342220,-1759.325091,1346.982871
69,68000,197246.553930,-362423.871160,165177.317350,1043.587576,-1834.407644,790.820068
70,69000,295530.959688,-330155.344226,34624.384662,1528.252950,-1651.830350,123.577400
71,70000,352305.873779,-251507.203821,-100798.669847,1798.266336,-1237.280031,-560.986305
72,71000,359595.656891,-137543.434073,-222052.222739,1815.721110,-648.984453,-1166.736657
73,72000,316382.985366,-4274.170749,-312108.814580,1578.171939,30.473769,-1608.645708
74,73000,228740.368879,129600.250120,-358340.619007,1118.967960,705.682435,-1824.650394
75,74000,108971.516533,245285.813281,-354257.329867,502.593693,1281.773800,-1784.367493
76,75000,-26107.053835,326520.364176,-300413.310434,-184.371491,1677.813231,-1493.441740
77,76000,-157519.896209,361882.821858,-204362.925766,-845.433336,1838.207911,-992.774576
78,77000,-266804.969894,346417.736667,-79612.766897,-1387.755757,1740.461783,-352.706026
79,78000,-338616.122784,282311.654905,56304.467763,-1735.184869,1398.281596,336.903273
80,79000,-362873.642668,178560.980656,184312.661920,-1838.920733,859.690086,979.230646
81,80000,-336169.492955,49721.448821,286448.044082,-1684.379372,200.343016,1484.036356
82,81000,-262248.104024,-86108.971126,348357.075145,-1293.266359,-487.118605,1780.384964
83,82000,-151491.152946,-209837.354832,361328.507818,-720.526622,-1106.145399,1826.672020
84,83000,-19460.037389,-304085.362809,323545.400279,-46.602537,-1569.834326,1616.436863
85,84000,115300.034043,-355631.354133,240331.320202,633.868525,-1813.068561,1179.200036
86,85000,233867.756041,-357240.460938,123372.705022,1225.322484,-1801.651800,576.329316
87,86000,319593.808140,-308672.960009,-10920.848011,1644.680043,-1537.172081,-107.507961
88,87000,360433.819879,-216742.106192,-143691.713586,1833.035074,-1056.804795,-776.230279
89,88000,350647.722175,-94370.925791,-256276.796316,1763.942706,-428.038540,-1335.904165
90,89000,291613.144739,41243.262234,-332856.406951,1447.117454,260.841928,-1707.959381
91,90000,191626.188982,171062.549600,-362688.738608,927.050379,913.113043,-1840.163421
92,91000,64727.838208,276866.855452,-341594.693729,276.771457,1437.149071,-1713.920528
93,92000,-71264.580026,343791.054889,-272526.474965,-412.386496,1759.319799,-1346.933303
94,93000,-197250.752405,362422.164350,-165171.412068,-1043.620842,1834.385497,-790.764655
95,94000,-295531.126945,330145.124159,-34613.997338,-1528.276407,1651.835593,-123.559186
96,95000,-352301.848780,251506.767785,100795.080886,-1798.296781,1237.308630,560.988151
97,96000,-359594.534547,137553.428005,222041.106463,-1815.761520,648.992216,1166.769304
98,97000,-316386.802396,4276.781063,312110.021295,-1578.206768,-30.494140,1608.700908
99,98000,-228742.698942,-129609.703718,358352.402670,-1118.990566,-705.689830,1824.680395
100,99000,-108968.664459,-245290.833924,354259.498438,-502.617654,-1281.750844,1784.368499
101,100000,26109.865420,-326512.136196,300402.270868,184.336356,-1677.795476,1493.459120
102,101000,157517.766811,-361875.507141,204357.740447,845.397890,-1838.220911,992.823021
103,102000,266801.673251,-346423.782575,79622.109451,1387.732285,-1740.477273,352.744988
104,103000,338617.257189,-282320.443810,-56296.813263,1735.165770,-1398.267841,-336.897929
105,104000,362876.900699,-178557.598318,-184319.302291,1838.892048,-859.666949,-979.225099
106,105000,336168.939946,-49712.186970,-286456.752923,1684.344982,-200.346337,-1483.998644
107,106000,262244.620067,86108.119521,-348352.739580,1293.240834,487.099486,-1780.340320
108,107000,151490.769838,209828.434072,-361319.203950,720.509840,1106.148218,-1826.658057
109,108000,19463.313198,304084.174524,-323547.487803,46.580291,1569.858064,-1616.438354
110,109000,-115298.939286,355639.658418,-240340.719243,-633.899674,1813.076022,-1179.176347
111,110000,-233870.865074,357243.424331,-123372.559382,-1225.349620,1801.634608,-576.284988
112,111000,-319595.869391,308665.423589,10930.445681,-1644.696679,1537.164398,107.532281
113,112000,-360431.464385,216737.436732,143694.027552,-1833.052204,1056.823379,776.228825
114,113000,-350645.200095,94377.367239,256267.832790,-1763.969342,428.054403,1335.914938
115,114000,-291614.840943,-41236.920543,332851.761463,-1447.145085,-260.852280,1707.997366
116,115000,-191629.134160,-171067.284445,362696.418630,-927.068131,-913.127273,1840.195404
117,116000,-64727.062502,-276874.417794,341601.480365,-276.784995,-1437.138885,1713.923880
118,117000,71267.453129,-343788.478932,272521.025906,412.365106,-1759.299997,1346.934891
119,118000,197250.552153,-362414.130046,165163.578014,1043.594111,-1834.387239,790.793129
120,119000,295528.199174,-330145.445170,34617.246120,1528.256743,-1651.852048,123.595305
121,120000,352301.289491,-251514.494654,-100786.794727,1798.284840,-1237.307670,-560.977169
122,121000,359597.200818,-137555.017711,-222042.183027,1815.745359,-648.972611,-1166.772748
123,122000,316387.893786,-4269.791560,-312118.102188,1578.182740,30.501264,-1608.684003
124,123000,228740.209765,129612.825202,-358353.034976,1118.969352,705.675499,-1824.644850
125,124000,108966.840090,245284.784642,-354251.624786,502.605433,1281.743232,-1784.348664
126,125000,-26107.973216,326507.737383,-300399.764259,-184.348452,1677.810425,-1493.461973
127,126000,-157515.551425,361880.482041,-204364.930733,-845.418057,1838.234945,-992.816887
128,127000,-266803.006684,346429.347620,-79626.341062,-1387.753912,1740.469093,-352.715181
129,128000,-338619.835842,282316.867648,56302.968078,-1735.179265,1398.254953,336.924312
130,129000,-362876.373321,178551.147569,184325.225661,-1838.901525,859.674395,979.227130
131,130000,-336166.425554,49714.034760,286452.390741,-1684.360840,200.363287,1483.997553
132,131000,-262244.593373,-86101.271244,348345.864610,-1293.261634,-487.100037,1780.361671
133,132000,-151493.250297,-209828.392120,361321.642456,-720.525069,-1106.162343,1826.687411
134,133000,-19463.984904,-304090.777873,323554.762858,-46.588742,-1569.858481,1616.447223
135,134000,115301.122549,-355641.402849,240340.280411,633.888028,-1813.059873,1179.171845
136,135000,233871.951578,-357237.540606,123365.589153,1225.331087,-1801.627841,576.296754
137,136000,319593.895295,-308662.317036,-10931.578138,1644.680040,-1537.176221,-107.503819
138,137000,360429.834890,-216742.337952,-143687.496837,1833.043231,-1056.830712,-776.212519
139,138000,350646.681622,-94381.487175,-256265.194380,1763.960923,-428.042487,-1335.918436
140,139000,291616.769692,41240.747722,-332857.517392,1447.129838,260.864607,-1707.994445
141,140000,191628.115592,171072.212415,-362700.328031,927.051141,913.120896,-1840.172036
142,141000,64724.841028,276871.810784,-341596.651881,276.774685,1437.127371,-1713.902056
143,142000,-71267.111568,343782.968262,-272515.856796,-412.371632,1759.305337,-1346.933705
144,143000,-197248.379267,362415.342148,-165166.963003,-1043.605788,1834.401711,-790.795923
145,144000,-295528.034648,330151.216392,-34623.181868,-1528.272952,1651.852357,-123.579405
146,145000,-352303.391509,251514.816869,100788.574530,-1798.296708,1237.295582,561.001126
147,146000,-359597.923094,137549.458590,222048.464424,-1815.751303,648.971230,1166.780073
148,147000,-316386.095295,4268.022387,312118.072871,-1578.191042,-30.487984,1608.679026
149,148000,-228739.146544,-129607.905686,358347.052239,-1118.983634,-705.669115,1824.652749
150,149000,-108968.401941,-245281.826246,354250.228241,-502.618529,-1281.752905,1784.371434
151,150000,26106.507568,-326511.721938,300405.214462,184.341857,-1677.817363,1493.475506
152,151000,157516.686788,-361884.283435,204367.596765,845.412303,-1838.225540,992.813237
153,152000,266804.684545,-346426.401850,79621.717431,1387.742408,-1740.458318,352.715911
154,153000,338619.087805,-282312.489277,-56306.598412,1735.165875,-1398.259829,-336.906046
155,154000,362874.478653,-178552.991888,-184321.486675,1838.893608,-859.684565,-979.209043
156,155000,336166.618913,-49718.760732,-286447.858128,1684.356442,-200.359570,-1483.996872
157,156000,262246.446121,86101.955256,-348348.401370,1293.253102,487.112343,-1780.365445
158,157000,151493.497590,209833.232899,-361326.730529,720.512417,1106.163249,-1826.675665
159,158000,19462.213930,304091.326568,-323553.540579,46.579431,1569.848182,-1616.427613
160,159000,-115301.848139,355636.779698,-240334.931669,-633.892177,1813.057865,-1179.165688
161,160000,-233870.467029,357235.807775,-123365.340871,-1225.336917,1801.638744,-576.301827
162,161000,-319592.879666,308666.382567,10926.496978,-1644.691033,1537.182188,107.508845
163,162000,-360431.071361,216745.075889,143685.995372,-1833.053580,1056.822851,776.230729
164,163000,-350648.001578,94378.259094,256269.742418,-1763.965787,428.036013,1335.929774
165,164000,-291615.913523,-41244.193904,332860.107405,-1447.133679,-260.857260,1707.990939
166,165000,-191626.652968,-171069.945970,362696.598962,-927.059794,-913.111507,1840.171301
167,166000,-64725.364613,-276867.934357,341593.299039,-276.785266,-1437.131004,1713.916270
168,167000,71265.503059,-343784.234536,272518.731579,412.365516,-1759.314239,1346.948722
169,168000,197248.451604,-362419.407817,165170.956335,1043.602907,-1834.399248,790.796341
170,169000,295529.597223,-330150.942103,34621.345004,1528.266775,-1651.841941,123.575166
171,170000,352303.689271,-251510.759111,-100792.930050,1798.286816,-1237.294274,-560.992541
172,171000,359596.444705,-137548.734570,-222047.710056,1815.743950,-648.979955,-1166.763995
173,172000,316385.396016,-4271.835145,-312113.560833,1578.188172,30.485607,-1608.673779
174,173000,228740.367929,129606.233725,-358346.601663,1118.979622,705.678045,-1824.657667
175,174000,108969.349388,245285.144363,-354254.493806,502.610081,1281.758425,-1784.368507
176,175000,-26107.486371,326514.213103,-300406.726824,-184.350069,1677.811012,-1493.460943
177,176000,-157517.870037,361881.694164,-204363.824243,-845.415909,1838.219570,-992.803661
178,177000,-266804.047117,346423.326161,-79619.279170,-1387.744885,1740.463999,-352.719114
179,178000,-338617.811293,282314.221941,56303.589235,-1735.172356,1398.267991,336.904365
180,179000,-362874.823773,178556.397671,184318.426012,-1838.901986,859.681944,979.220042
181,180000,-336167.982964,49717.923301,286450.059610,-1684.361198,200.351832,1484.009365
182,181000,-262246.470333,-86105.452164,348351.922491,-1293.254917,-487.110846,1780.365762
183,182000,-151492.189623,-209833.256551,361325.446214,-720.516839,-1106.154474,1826.671313
184,183000,-19461.885243,-304087.922525,323549.807848,-46.587176,-1569.846616,1616.433792
185,184000,115300.626081,-355635.934591,240335.308620,633.886333,-1813.065207,1179.178874
186,185000,233869.809289,-357238.937548,123369.128384,1225.334955,-1801.641302,576.306347
187,186000,319593.876769,-308667.981011,-10925.895637,1644.688348,-1537.174902,-107.513446
188,187000,360431.937969,-216742.398115,-143689.539753,1833.047099,-1056.817797,-776.229302
189,188000,350647.229704,-94376.012445,-256271.217193,1763.959240,-428.041110,-1335.918130
190,189000,291614.861506,41242.146198,-332857.007681,1447.130984,260.851816,-1707.982799
191,190000,191627.121345,171067.233021,-362694.354391,927.058279,913.115851,-1840.174129
192,191000,64726.476998,276869.238924,-341595.715990,276.780441,1437.138083,-1713.918524
193,192000,-71265.711853,343787.199367,-272521.487616,-412.372164,1759.312430,-1346.940266
194,193000,-197249.608360,362418.887696,-165169.279458,-1043.606634,1834.392560,-790.785925
195,194000,-295529.694370,330147.944909,-34618.250664,-1528.267853,1651.842705,-123.574852
196,195000,-352302.599276,251510.531753,100792.067413,-1798.289937,1237.301636,560.988300
197,196000,-359596.098825,137551.589905,222044.508841,-1815.750018,648.981672,1166.768346
198,197000,-316386.397410,4272.748077,312113.649295,-1578.192845,-30.491745,1608.684589
199,198000,-228740.978131,-129608.796573,358349.774713,-1118.980946,-705.680650,1824.661596
200,199000,-108968.543877,-245286.658309,354255.202240,-502.611808,-1281.752509,1784.364317
201,200000,26108.267596,-326512.071523,300403.804019,184.345108,-1677.806430,1493.461322
202,201000,157517.266736,-361879.677447,204362.410828,845.410668,-1838.223629,992.812962
203,202000,266803.120458,-346424.919431,79621.799098,1387.742851,-1740.468912,352.726060
204,203000,338618.149091,-282316.596390,-56301.552585,1735.171510,-1398.264712,-336.906798
205,204000,362875.789017,-178555.440332,-184320.348595,1838.898422,-859.675823,-979.222598
206,205000,336167.874975,-49715.364480,-286452.510442,1684.355914,-200.353004,-1484.002910
207,206000,262245.490042,86105.168523,-348350.658559,1293.251970,487.105092,-1780.357061
208,207000,151492.041497,209830.702500,-361322.744037,720.516260,1106.154690,-1826.670950
209,208000,19462.791240,304087.563770,-323550.355092,46.585016,1569.852770,-1616.437786
210,209000,-115300.274276,355638.324556,-240338.050390,-633.891089,1813.066997,-1179.175909
211,210000,-233870.624194,357239.871992,-123369.247922,-1225.338712,1801.636204,-576.297492
212,211000,-319594.438151,308665.886480,10928.551549,-1644.689229,1537.172338,107.516891
213,212000,-360431.294686,216740.980188,143690.314398,-1833.048142,1056.822572,776.225571
214,213000,-350646.532393,94377.713040,256268.819286,-1763.963028,428.045230,1335.917798
215,214000,-291615.326463,-41240.342091,332855.668532,-1447.135198,-260.855018,1707.990215
216,215000,-191627.930596,-171068.451681,362696.382302,-927.059830,-913.120242,1840.180072
217,216000,-64726.240689,-276871.307140,341597.547897,-276.780829,-1437.135647,1713.916476
218,217000,71266.544395,-343786.522991,272519.978698,412.369555,-1759.307154,1346.937599
